Freq.	V(o)
Step Information: Sim=1  (Run: 1/4)
1.00000000000000e+001	(-6.59748837918366e+001dB,8.95392099346835e+001°)
1.01157945425990e+001	(-6.58748903345945e+001dB,8.95338744712776e+001°)
1.02329299228075e+001	(-6.57748970297427e+001dB,8.95284772343428e+001°)
1.03514216667934e+001	(-6.56749038808302e+001dB,8.95230175088644e+001°)
1.04712854805090e+001	(-6.55749108914888e+001dB,8.95174945715583e+001°)
1.05925372517729e+001	(-6.54749180654349e+001dB,8.95119076907759e+001°)
1.07151930523761e+001	(-6.53749254064715e+001dB,8.95062561264072e+001°)
1.08392691402120e+001	(-6.52749329184899e+001dB,8.95005391297833e+001°)
1.09647819614319e+001	(-6.51749406054722e+001dB,8.94947559435780e+001°)
1.10917481526240e+001	(-6.50749484714933e+001dB,8.94889058017076e+001°)
1.12201845430196e+001	(-6.49749565207228e+001dB,8.94829879292301e+001°)
1.13501081567232e+001	(-6.48749647574275e+001dB,8.94770015422432e+001°)
1.14815362149688e+001	(-6.47749731859735e+001dB,8.94709458477806e+001°)
1.16144861384034e+001	(-6.46749818108286e+001dB,8.94648200437077e+001°)
1.17489755493953e+001	(-6.45749906365647e+001dB,8.94586233186161e+001°)
1.18850222743702e+001	(-6.44749996678600e+001dB,8.94523548517167e+001°)
1.20226443461741e+001	(-6.43750089095018e+001dB,8.94460138127312e+001°)
1.21618600064637e+001	(-6.42750183663887e+001dB,8.94395993617832e+001°)
1.23026877081238e+001	(-6.41750280435335e+001dB,8.94331106492874e+001°)
1.24451461177139e+001	(-6.40750379460656e+001dB,8.94265468158380e+001°)
1.25892541179417e+001	(-6.39750480792340e+001dB,8.94199069920950e+001°)
1.27350308101666e+001	(-6.38750584484097e+001dB,8.94131902986706e+001°)
1.28824955169314e+001	(-6.37750690590889e+001dB,8.94063958460129e+001°)
1.30316677845230e+001	(-6.36750799168957e+001dB,8.93995227342890e+001°)
1.31825673855641e+001	(-6.35750910275852e+001dB,8.93925700532668e+001°)
1.33352143216333e+001	(-6.34751023970465e+001dB,8.93855368821950e+001°)
1.34896288259166e+001	(-6.33751140313058e+001dB,8.93784222896823e+001°)
1.36458313658893e+001	(-6.32751259365295e+001dB,8.93712253335751e+001°)
1.38038426460289e+001	(-6.31751381190277e+001dB,8.93639450608330e+001°)
1.39636836105594e+001	(-6.30751505852574e+001dB,8.93565805074043e+001°)
1.41253754462276e+001	(-6.29751633418258e+001dB,8.93491306980990e+001°)
1.42889395851111e+001	(-6.28751763954941e+001dB,8.93415946464606e+001°)
1.44543977074593e+001	(-6.27751897531808e+001dB,8.93339713546367e+001°)
1.46217717445672e+001	(-6.26752034219654e+001dB,8.93262598132482e+001°)
1.47910838816821e+001	(-6.25752174090924e+001dB,8.93184590012561e+001°)
1.49623565609444e+001	(-6.24752317219748e+001dB,8.93105678858284e+001°)
1.51356124843621e+001	(-6.23752463681982e+001dB,8.93025854222039e+001°)
1.53108746168203e+001	(-6.22752613555249e+001dB,8.92945105535553e+001°)
1.54881661891249e+001	(-6.21752766918977e+001dB,8.92863422108508e+001°)
1.56675107010815e+001	(-6.20752923854444e+001dB,8.92780793127138e+001°)
1.58489319246112e+001	(-6.19753084444822e+001dB,8.92697207652811e+001°)
1.60324539069005e+001	(-6.18753248775214e+001dB,8.92612654620596e+001°)
1.62181009735893e+001	(-6.17753416932710e+001dB,8.92527122837813e+001°)
1.64058977319954e+001	(-6.16753589006423e+001dB,8.92440600982568e+001°)
1.65958690743757e+001	(-6.15753765087542e+001dB,8.92353077602268e+001°)
1.67880401812257e+001	(-6.14753945269377e+001dB,8.92264541112126e+001°)
1.69824365246175e+001	(-6.13754129647414e+001dB,8.92174979793642e+001°)
1.71790838715759e+001	(-6.12754318319355e+001dB,8.92084381793067e+001°)
1.73780082874938e+001	(-6.11754511385183e+001dB,8.91992735119861e+001°)
1.75792361395870e+001	(-6.10754708947203e+001dB,8.91900027645116e+001°)
1.77827941003893e+001	(-6.09754911110103e+001dB,8.91806247099978e+001°)
1.79887091512879e+001	(-6.08755117981008e+001dB,8.91711381074038e+001°)
1.81970085860999e+001	(-6.07755329669535e+001dB,8.91615417013718e+001°)
1.84077200146896e+001	(-6.06755546287853e+001dB,8.91518342220623e+001°)
1.86208713666287e+001	(-6.05755767950741e+001dB,8.91420143849891e+001°)
1.88364908948981e+001	(-6.04755994775651e+001dB,8.91320808908513e+001°)
1.90546071796325e+001	(-6.03756226882764e+001dB,8.91220324253641e+001°)
1.92752491319094e+001	(-6.02756464395063e+001dB,8.91118676590871e+001°)
1.94984459975805e+001	(-6.01756707438389e+001dB,8.91015852472513e+001°)
1.97242273611486e+001	(-6.00756956141514e+001dB,8.90911838295838e+001°)
1.99526231496889e+001	(-5.99757210636204e+001dB,8.90806620301308e+001°)
2.01836636368157e+001	(-5.98757471057293e+001dB,8.90700184570781e+001°)
2.04173794466954e+001	(-5.97757737542752e+001dB,8.90592517025706e+001°)
2.06538015581054e+001	(-5.96758010233762e+001dB,8.90483603425285e+001°)
2.08929613085405e+001	(-5.95758289274789e+001dB,8.90373429364628e+001°)
2.11348903983666e+001	(-5.94758574813661e+001dB,8.90261980272877e+001°)
2.13796208950224e+001	(-5.93758867001644e+001dB,8.90149241411314e+001°)
2.16271852372703e+001	(-5.92759165993524e+001dB,8.90035197871450e+001°)
2.18776162394956e+001	(-5.91759471947689e+001dB,8.89919834573088e+001°)
2.21309470960565e+001	(-5.90759785026211e+001dB,8.89803136262369e+001°)
2.23872113856835e+001	(-5.89760105394932e+001dB,8.89685087509793e+001°)
2.26464430759307e+001	(-5.88760433223552e+001dB,8.89565672708219e+001°)
2.29086765276778e+001	(-5.87760768685720e+001dB,8.89444876070850e+001°)
2.31739464996849e+001	(-5.86761111959124e+001dB,8.89322681629182e+001°)
2.34422881531993e+001	(-5.85761463225584e+001dB,8.89199073230944e+001°)
2.37137370566167e+001	(-5.84761822671149e+001dB,8.89074034538007e+001°)
2.39883291901950e+001	(-5.83762190486197e+001dB,8.88947549024276e+001°)
2.42661009508243e+001	(-5.82762566865534e+001dB,8.88819599973553e+001°)
2.45470891568504e+001	(-5.81762952008495e+001dB,8.88690170477384e+001°)
2.48313310529558e+001	(-5.80763346119053e+001dB,8.88559243432873e+001°)
2.51188643150959e+001	(-5.79763749405922e+001dB,8.88426801540485e+001°)
2.54097270554932e+001	(-5.78764162082672e+001dB,8.88292827301810e+001°)
2.57039578276888e+001	(-5.77764584367839e+001dB,8.88157303017320e+001°)
2.60015956316529e+001	(-5.76765016485041e+001dB,8.88020210784085e+001°)
2.63026799189540e+001	(-5.75765458663094e+001dB,8.87881532493475e+001°)
2.66072505979882e+001	(-5.74765911136138e+001dB,8.87741249828836e+001°)
2.69153480392693e+001	(-5.73766374143752e+001dB,8.87599344263138e+001°)
2.72270130807793e+001	(-5.72766847931088e+001dB,8.87455797056600e+001°)
2.75422870333818e+001	(-5.71767332748999e+001dB,8.87310589254288e+001°)
2.78612116862979e+001	(-5.70767828854168e+001dB,8.87163701683688e+001°)
2.81838293126447e+001	(-5.69768336509243e+001dB,8.87015114952255e+001°)
2.85101826750393e+001	(-5.68768855982981e+001dB,8.86864809444935e+001°)
2.88403150312662e+001	(-5.67769387550385e+001dB,8.86712765321656e+001°)
2.91742701400118e+001	(-5.66769931492849e+001dB,8.86558962514804e+001°)
2.95120922666640e+001	(-5.65770488098308e+001dB,8.86403380726657e+001°)
2.98538261891798e+001	(-5.64771057661389e+001dB,8.86245999426805e+001°)
3.01995172040203e+001	(-5.63771640483566e+001dB,8.86086797849537e+001°)
3.05492111321553e+001	(-5.62772236873318e+001dB,8.85925754991200e+001°)
3.09029543251361e+001	(-5.61772847146295e+001dB,8.85762849607533e+001°)
3.12607936712397e+001	(-5.60773471625477e+001dB,8.85598060210975e+001°)
3.16227766016840e+001	(-5.59774110641353e+001dB,8.85431365067936e+001°)
3.19889510969142e+001	(-5.58774764532088e+001dB,8.85262742196051e+001°)
3.23593656929630e+001	(-5.57775433643702e+001dB,8.85092169361397e+001°)
3.27340694878840e+001	(-5.56776118330257e+001dB,8.84919624075690e+001°)
3.31131121482593e+001	(-5.55776818954035e+001dB,8.84745083593443e+001°)
3.34965439157830e+001	(-5.54777535885738e+001dB,8.84568524909099e+001°)
3.38844156139205e+001	(-5.53778269504673e+001dB,8.84389924754142e+001°)
3.42767786546453e+001	(-5.52779020198960e+001dB,8.84209259594167e+001°)
3.46736850452534e+001	(-5.51779788365731e+001dB,8.84026505625926e+001°)
3.50751873952570e+001	(-5.50780574411339e+001dB,8.83841638774347e+001°)
3.54813389233578e+001	(-5.49781378751574e+001dB,8.83654634689515e+001°)
3.58921934645008e+001	(-5.48782201811878e+001dB,8.83465468743632e+001°)
3.63078054770104e+001	(-5.47783044027573e+001dB,8.83274116027937e+001°)
3.67282300498087e+001	(-5.46783905844084e+001dB,8.83080551349605e+001°)
3.71535229097175e+001	(-5.45784787717176e+001dB,8.82884749228609e+001°)
3.75837404288447e+001	(-5.44785690113194e+001dB,8.82686683894550e+001°)
3.80189396320564e+001	(-5.43786613509305e+001dB,8.82486329283462e+001°)
3.84591782045356e+001	(-5.42787558393751e+001dB,8.82283659034580e+001°)
3.89045144994284e+001	(-5.41788525266101e+001dB,8.82078646487080e+001°)
3.93550075455780e+001	(-5.40789514637519e+001dB,8.81871264676785e+001°)
3.98107170553500e+001	(-5.39790527031026e+001dB,8.81661486332840e+001°)
4.02717034325462e+001	(-5.38791562981776e+001dB,8.81449283874356e+001°)
4.07380277804116e+001	(-5.37792623037339e+001dB,8.81234629407021e+001°)
4.12097519097333e+001	(-5.36793707757982e+001dB,8.81017494719678e+001°)
4.16869383470339e+001	(-5.35794817716970e+001dB,8.80797851280874e+001°)
4.21696503428586e+001	(-5.34795953500857e+001dB,8.80575670235371e+001°)
4.26579518801596e+001	(-5.33797115709801e+001dB,8.80350922400630e+001°)
4.31519076827769e+001	(-5.32798304957873e+001dB,8.80123578263259e+001°)
4.36515832240170e+001	(-5.31799521873380e+001dB,8.79893607975429e+001°)
4.41570447353316e+001	(-5.30800767099192e+001dB,8.79660981351257e+001°)
4.46683592150967e+001	(-5.29802041293079e+001dB,8.79425667863157e+001°)
4.51855944374926e+001	(-5.28803345128056e+001dB,8.79187636638157e+001°)
4.57088189614879e+001	(-5.27804679292730e+001dB,8.78946856454182e+001°)
4.62381021399264e+001	(-5.26806044491664e+001dB,8.78703295736306e+001°)
4.67735141287202e+001	(-5.25807441445741e+001dB,8.78456922552972e+001°)
4.73151258961485e+001	(-5.24808870892544e+001dB,8.78207704612171e+001°)
4.78630092322643e+001	(-5.23810333586736e+001dB,8.77955609257600e+001°)
4.84172367584104e+001	(-5.22811830300457e+001dB,8.77700603464773e+001°)
4.89778819368451e+001	(-5.21813361823723e+001dB,8.77442653837112e+001°)
4.95450190804795e+001	(-5.20814928964840e+001dB,8.77181726601997e+001°)
5.01187233627277e+001	(-5.19816532550824e+001dB,8.76917787606781e+001°)
5.06990708274709e+001	(-5.18818173427832e+001dB,8.76650802314782e+001°)
5.12861383991370e+001	(-5.17819852461597e+001dB,8.76380735801227e+001°)
5.18800038928966e+001	(-5.16821570537886e+001dB,8.76107552749179e+001°)
5.24807460249778e+001	(-5.15823328562956e+001dB,8.75831217445419e+001°)
5.30884444230993e+001	(-5.14825127464022e+001dB,8.75551693776300e+001°)
5.37031796370258e+001	(-5.13826968189744e+001dB,8.75268945223571e+001°)
5.43250331492439e+001	(-5.12828851710714e+001dB,8.74982934860161e+001°)
5.49540873857630e+001	(-5.11830779019964e+001dB,8.74693625345939e+001°)
5.55904257270409e+001	(-5.10832751133475e+001dB,8.74400978923435e+001°)
5.62341325190355e+001	(-5.09834769090710e+001dB,8.74104957413536e+001°)
5.68852930843847e+001	(-5.08836833955145e+001dB,8.73805522211144e+001°)
5.75439937337163e+001	(-5.07838946814825e+001dB,8.73502634280802e+001°)
5.82103217770877e+001	(-5.06841108782923e+001dB,8.73196254152301e+001°)
5.88843655355595e+001	(-5.05843320998319e+001dB,8.72886341916238e+001°)
5.95662143529017e+001	(-5.04845584626183e+001dB,8.72572857219556e+001°)
6.02559586074364e+001	(-5.03847900858581e+001dB,8.72255759261053e+001°)
6.09536897240175e+001	(-5.02850270915087e+001dB,8.71935006786855e+001°)
6.16595001861489e+001	(-5.01852696043414e+001dB,8.71610558085866e+001°)
6.23734835482426e+001	(-5.00855177520056e+001dB,8.71282370985187e+001°)
6.30957344480200e+001	(-4.99857716650943e+001dB,8.70950402845503e+001°)
6.38263486190555e+001	(-4.98860314772116e+001dB,8.70614610556450e+001°)
6.45654229034662e+001	(-4.97862973250413e+001dB,8.70274950531946e+001°)
6.53130552647479e+001	(-4.96865693484169e+001dB,8.69931378705503e+001°)
6.60693448007603e+001	(-4.95868476903938e+001dB,8.69583850525508e+001°)
6.68343917568622e+001	(-4.94871324973221e+001dB,8.69232320950477e+001°)
6.76082975391989e+001	(-4.93874239189222e+001dB,8.68876744444293e+001°)
6.83911647281437e+001	(-4.92877221083612e+001dB,8.68517074971410e+001°)
6.91830970918944e+001	(-4.91880272223312e+001dB,8.68153265992039e+001°)
6.99841996002281e+001	(-4.90883394211295e+001dB,8.67785270457311e+001°)
7.07945784384146e+001	(-4.89886588687407e+001dB,8.67413040804418e+001°)
7.16143410212910e+001	(-4.88889857329199e+001dB,8.67036528951733e+001°)
7.24435960074998e+001	(-4.87893201852787e+001dB,8.66655686293913e+001°)
7.32824533138912e+001	(-4.86896624013727e+001dB,8.66270463696980e+001°)
7.41310241300926e+001	(-4.85900125607902e+001dB,8.65880811493384e+001°)
7.49894209332465e+001	(-4.84903708472442e+001dB,8.65486679477057e+001°)
7.58577575029193e+001	(-4.83907374486656e+001dB,8.65088016898440e+001°)
7.67361489361828e+001	(-4.82911125572982e+001dB,8.64684772459509e+001°)
7.76247116628701e+001	(-4.81914963697966e+001dB,8.64276894308775e+001°)
7.85235634610081e+001	(-4.80918890873254e+001dB,8.63864330036286e+001°)
7.94328234724291e+001	(-4.79922909156616e+001dB,8.63447026668611e+001°)
8.03526122185627e+001	(-4.78927020652976e+001dB,8.63024930663814e+001°)
8.12830516164109e+001	(-4.77931227515485e+001dB,8.62597987906433e+001°)
8.22242649947081e+001	(-4.76935531946598e+001dB,8.62166143702437e+001°)
8.31763771102681e+001	(-4.75939936199189e+001dB,8.61729342774195e+001°)
8.41395141645205e+001	(-4.74944442577679e+001dB,8.61287529255434e+001°)
8.51138038202387e+001	(-4.73949053439199e+001dB,8.60840646686204e+001°)
8.60993752184611e+001	(-4.72953771194769e+001dB,8.60388638007838e+001°)
8.70963589956091e+001	(-4.71958598310504e+001dB,8.59931445557923e+001°)
8.81048873008025e+001	(-4.70963537308854e+001dB,8.59469011065273e+001°)
8.91250938133757e+001	(-4.69968590769858e+001dB,8.59001275644915e+001°)
9.01571137605968e+001	(-4.68973761332435e+001dB,8.58528179793084e+001°)
9.12010839355921e+001	(-4.67979051695699e+001dB,8.58049663382228e+001°)
9.22571427154775e+001	(-4.66984464620298e+001dB,8.57565665656037e+001°)
9.33254300797003e+001	(-4.65990002929790e+001dB,8.57076125224485e+001°)
9.44060876285936e+001	(-4.64995669512039e+001dB,8.56580980058892e+001°)
9.54992586021448e+001	(-4.64001467320649e+001dB,8.56080167487019e+001°)
9.66050878989826e+001	(-4.63007399376422e+001dB,8.55573624188178e+001°)
9.77237220955824e+001	(-4.62013468768847e+001dB,8.55061286188386e+001°)
9.88553094656952e+001	(-4.61019678657625e+001dB,8.54543088855538e+001°)
1.00000000000001e+002	(-4.60026032274224e+001dB,8.54018966894633e+001°)
1.01157945425991e+002	(-4.59032532923462e+001dB,8.53488854343026e+001°)
1.02329299228077e+002	(-4.58039183985127e+001dB,8.52952684565731e+001°)
1.03514216667936e+002	(-4.57045988915633e+001dB,8.52410390250774e+001°)
1.04712854805091e+002	(-4.56052951249705e+001dB,8.51861903404594e+001°)
1.05925372517730e+002	(-4.55060074602100e+001dB,8.51307155347498e+001°)
1.07151930523762e+002	(-4.54067362669369e+001dB,8.50746076709181e+001°)
1.08392691402122e+002	(-4.53074819231644e+001dB,8.50178597424307e+001°)
1.09647819614320e+002	(-4.52082448154475e+001dB,8.49604646728162e+001°)
1.10917481526242e+002	(-4.51090253390693e+001dB,8.49024153152373e+001°)
1.12201845430198e+002	(-4.50098238982315e+001dB,8.48437044520717e+001°)
1.13501081567233e+002	(-4.49106409062492e+001dB,8.47843247945002e+001°)
1.14815362149690e+002	(-4.48114767857489e+001dB,8.47242689821044e+001°)
1.16144861384036e+002	(-4.47123319688708e+001dB,8.46635295824735e+001°)
1.17489755493955e+002	(-4.46132068974752e+001dB,8.46020990908211e+001°)
1.18850222743704e+002	(-4.45141020233528e+001dB,8.45399699296127e+001°)
1.20226443461743e+002	(-4.44150178084397e+001dB,8.44771344482040e+001°)
1.21618600064639e+002	(-4.43159547250357e+001dB,8.44135849224912e+001°)
1.23026877081240e+002	(-4.42169132560278e+001dB,8.43493135545737e+001°)
1.24451461177140e+002	(-4.41178938951176e+001dB,8.42843124724298e+001°)
1.25892541179419e+002	(-4.40188971470532e+001dB,8.42185737296062e+001°)
1.27350308101668e+002	(-4.39199235278657e+001dB,8.41520893049219e+001°)
1.28824955169315e+002	(-4.38209735651103e+001dB,8.40848511021872e+001°)
1.30316677845232e+002	(-4.37220477981116e+001dB,8.40168509499388e+001°)
1.31825673855643e+002	(-4.36231467782140e+001dB,8.39480806011916e+001°)
1.33352143216334e+002	(-4.35242710690371e+001dB,8.38785317332083e+001°)
1.34896288259167e+002	(-4.34254212467350e+001dB,8.38081959472866e+001°)
1.36458313658895e+002	(-4.33265979002614e+001dB,8.37370647685665e+001°)
1.38038426460291e+002	(-4.32278016316389e+001dB,8.36651296458572e+001°)
1.39636836105596e+002	(-4.31290330562342e+001dB,8.35923819514855e+001°)
1.41253754462278e+002	(-4.30302928030373e+001dB,8.35188129811656e+001°)
1.42889395851113e+002	(-4.29315815149464e+001dB,8.34444139538921e+001°)
1.44543977074595e+002	(-4.28328998490580e+001dB,8.33691760118576e+001°)
1.46217717445674e+002	(-4.27342484769622e+001dB,8.32930902203943e+001°)
1.47910838816823e+002	(-4.26356280850428e+001dB,8.32161475679423e+001°)
1.49623565609446e+002	(-4.25370393747835e+001dB,8.31383389660451e+001°)
1.51356124843623e+002	(-4.24384830630789e+001dB,8.30596552493732e+001°)
1.53108746168206e+002	(-4.23399598825512e+001dB,8.29800871757772e+001°)
1.54881661891251e+002	(-4.22414705818720e+001dB,8.28996254263721e+001°)
1.56675107010818e+002	(-4.21430159260905e+001dB,8.28182606056526e+001°)
1.58489319246114e+002	(-4.20445966969662e+001dB,8.27359832416426e+001°)
1.60324539069007e+002	(-4.19462136933079e+001dB,8.26527837860789e+001°)
1.62181009735896e+002	(-4.18478677313180e+001dB,8.25686526146302e+001°)
1.64058977319957e+002	(-4.17495596449430e+001dB,8.24835800271545e+001°)
1.65958690743759e+002	(-4.16512902862289e+001dB,8.23975562479940e+001°)
1.67880401812259e+002	(-4.15530605256827e+001dB,8.23105714263114e+001°)
1.69824365246177e+002	(-4.14548712526404e+001dB,8.22226156364666e+001°)
1.71790838715762e+002	(-4.13567233756393e+001dB,8.21336788784380e+001°)
1.73780082874941e+002	(-4.12586178227975e+001dB,8.20437510782869e+001°)
1.75792361395872e+002	(-4.11605555421983e+001dB,8.19528220886704e+001°)
1.77827941003895e+002	(-4.10625375022809e+001dB,8.18608816894005e+001°)
1.79887091512882e+002	(-4.09645646922366e+001dB,8.17679195880543e+001°)
1.81970085861002e+002	(-4.08666381224111e+001dB,8.16739254206350e+001°)
1.84077200146899e+002	(-4.07687588247126e+001dB,8.15788887522872e+001°)
1.86208713666290e+002	(-4.06709278530253e+001dB,8.14827990780661e+001°)
1.88364908948983e+002	(-4.05731462836292e+001dB,8.13856458237651e+001°)
1.90546071796328e+002	(-4.04754152156251e+001dB,8.12874183468017e+001°)
1.92752491319097e+002	(-4.03777357713661e+001dB,8.11881059371649e+001°)
1.94984459975808e+002	(-4.02801090968937e+001dB,8.10876978184250e+001°)
1.97242273611489e+002	(-4.01825363623807e+001dB,8.09861831488089e+001°)
1.99526231496892e+002	(-4.00850187625787e+001dB,8.08835510223431e+001°)
2.01836636368160e+002	(-3.99875575172715e+001dB,8.07797904700653e+001°)
2.04173794466957e+002	(-3.98901538717342e+001dB,8.06748904613077e+001°)
2.06538015581057e+002	(-3.97928090971969e+001dB,8.05688399050548e+001°)
2.08929613085408e+002	(-3.96955244913147e+001dB,8.04616276513764e+001°)
2.11348903983668e+002	(-3.95983013786417e+001dB,8.03532424929399e+001°)
2.13796208950227e+002	(-3.95011411111109e+001dB,8.02436731666027e+001°)
2.16271852372706e+002	(-3.94040450685187e+001dB,8.01329083550884e+001°)
2.18776162394959e+002	(-3.93070146590142e+001dB,8.00209366887487e+001°)
2.21309470960568e+002	(-3.92100513195931e+001dB,7.99077467474129e+001°)
2.23872113856838e+002	(-3.91131565165960e+001dB,7.97933270623292e+001°)
2.26464430759310e+002	(-3.90163317462112e+001dB,7.96776661181984e+001°)
2.29086765276782e+002	(-3.89195785349815e+001dB,7.95607523553040e+001°)
