time	V(6)	V(n006)
Step Information: Vdc=-500m  (Run: 1/3)
0.000000000000000e+000	-5.504173e+000	-5.000000e-001
6.250000073038109e-009	-5.504173e+000	-4.999607e-001
1.250000014607622e-008	-5.504172e+000	-4.999215e-001
5.000000058430487e-008	-5.504128e+000	-4.996859e-001
1.000000011686097e-007	-5.503968e+000	-4.993717e-001
2.000000023372195e-007	-5.503326e+000	-4.987434e-001
4.000000046744390e-007	-5.500868e+000	-4.974867e-001
8.000000093488779e-007	-5.492061e+000	-4.949735e-001
1.600000018697756e-006	-5.463396e+000	-4.899472e-001
3.200000037395512e-006	-5.381653e+000	-4.798964e-001
6.400000074791024e-006	-5.181036e+000	-4.598079e-001
1.280000014958205e-005	-4.746926e+000	-4.197114e-001
3.168198949226797e-005	-3.455438e+000	-3.024344e-001
4.144761449226797e-005	-2.797467e+000	-2.427529e-001
5.121323949226798e-005	-2.149769e+000	-1.840397e-001
6.097886449226798e-005	-1.514982e+000	-1.265157e-001
7.074448949226798e-005	-8.961687e-001	-7.039742e-002
8.051011449226798e-005	-3.009985e-001	-1.576689e-002
8.758071289865662e-005	1.181047e-001	2.278643e-002
9.158213196637910e-005	3.590227e-001	4.408959e-002
9.640479965780187e-005	6.471108e-001	6.922337e-002
1.015054812848307e-004	9.384395e-001	9.522665e-002
1.076550768954728e-004	1.276823e+000	1.256283e-001
1.174207018954728e-004	1.792849e+000	1.720110e-001
1.271863268954728e-004	2.283298e+000	2.160789e-001
1.369519518954728e-004	2.744271e+000	2.574517e-001
1.467175768954728e-004	3.174114e+000	2.959736e-001
1.564832018954729e-004	3.571229e+000	3.314996e-001
1.662488268954729e-004	3.934160e+000	3.638961e-001
1.760144518954729e-004	4.261541e+000	3.930410e-001
1.857800768954729e-004	4.552151e+000	4.188248e-001
1.955457018954729e-004	4.804896e+000	4.411503e-001
2.053113268954729e-004	5.018831e+000	4.599335e-001
2.150769518954729e-004	5.193151e+000	4.751037e-001
2.248425768954729e-004	5.327203e+000	4.866039e-001
2.346082018954729e-004	5.420484e+000	4.943907e-001
2.443738268954729e-004	5.472645e+000	4.984349e-001
2.541394518954729e-004	5.483492e+000	4.987212e-001
2.639050768954729e-004	5.452984e+000	4.952485e-001
2.736707018954730e-004	5.381238e+000	4.880299e-001
2.834363268954730e-004	5.268527e+000	4.770926e-001
2.932019518954730e-004	5.115275e+000	4.624777e-001
3.029675768954730e-004	4.922062e+000	4.442403e-001
3.127332018954730e-004	4.689617e+000	4.224490e-001
3.224988268954730e-004	4.418817e+000	3.971858e-001
3.322644518954730e-004	4.110683e+000	3.685458e-001
3.420300768954730e-004	3.766382e+000	3.366368e-001
3.517957018954730e-004	3.387213e+000	3.015789e-001
3.615613268954730e-004	2.974616e+000	2.635040e-001
3.713269518954730e-004	2.530161e+000	2.225554e-001
3.810925768954731e-004	2.055561e+000	1.788874e-001
3.908582018954731e-004	1.552694e+000	1.326641e-001
4.006238268954731e-004	1.023861e+000	8.405963e-002
4.103894518954731e-004	4.751844e-001	3.339197e-002
4.174648165670425e-004	6.541049e-002	-4.683905e-003
4.272304415670426e-004	-5.242899e-001	-5.874271e-002
4.318828747444805e-004	-8.180429e-001	-8.506045e-002
4.374520681939398e-004	-1.174545e+000	-1.171709e-001
4.437751587356289e-004	-1.580902e+000	-1.542379e-001
4.535407837356289e-004	-2.219798e+000	-2.124871e-001
4.633064087356289e-004	-2.869375e+000	-2.716995e-001
4.828376587356289e-004	-4.195410e+000	-3.924760e-001
5.023689087356290e-004	-5.540961e+000	-5.148697e-001
5.219001587356290e-004	-6.885884e+000	-6.370399e-001
5.414314087356290e-004	-8.209982e+000	-7.571488e-001
5.609626587356290e-004	-9.493347e+000	-8.733899e-001
5.804939087356290e-004	-1.071667e+001	-9.840149e-001
6.000251587356290e-004	-1.186150e+001	-1.087360e+000
6.097907837356291e-004	-1.239901e+001	-1.135812e+000
6.195564087356291e-004	-1.291265e+001	-1.182146e+000
6.251838686623137e-004	-1.318272e+001	-1.207827e+000
6.276436690496771e-004	-1.326957e+001	-1.218736e+000
6.287159365005341e-004	-1.328806e+001	-1.223415e+000
6.295859865668262e-004	-1.329383e+001	-1.227180e+000
6.305330364467622e-004	-1.329789e+001	-1.231251e+000
6.315190796840063e-004	-1.330116e+001	-1.235455e+000
6.334911661584944e-004	-1.330624e+001	-1.243781e+000
6.353578908371021e-004	-1.330983e+001	-1.251555e+000
6.383190417826449e-004	-1.331378e+001	-1.263666e+000
6.415580501618239e-004	-1.331675e+001	-1.276603e+000
6.461236357994081e-004	-1.331946e+001	-1.294283e+000
6.511394007835613e-004	-1.332130e+001	-1.312889e+000
6.589422064514826e-004	-1.332294e+001	-1.340260e+000
6.664915203536400e-004	-1.332382e+001	-1.364843e+000
6.762571453536400e-004	-1.332439e+001	-1.393723e+000
6.860227703536400e-004	-1.332470e+001	-1.419422e+000
6.957883953536400e-004	-1.332486e+001	-1.441660e+000
7.055540203536401e-004	-1.332495e+001	-1.460355e+000
7.153196453536401e-004	-1.332500e+001	-1.475434e+000
7.250852703536401e-004	-1.332503e+001	-1.486843e+000
7.348508953536401e-004	-1.332505e+001	-1.494537e+000
7.446165203536401e-004	-1.332505e+001	-1.498488e+000
7.543821453536401e-004	-1.332505e+001	-1.498680e+000
7.641477703536401e-004	-1.332505e+001	-1.495114e+000
7.739133953536401e-004	-1.332504e+001	-1.487803e+000
7.836790203536401e-004	-1.332501e+001	-1.476774e+000
7.934446453536401e-004	-1.332496e+001	-1.462068e+000
8.032102703536401e-004	-1.332488e+001	-1.443742e+000
8.129758953536402e-004	-1.332472e+001	-1.421863e+000
8.227415203536402e-004	-1.332443e+001	-1.396515e+000
8.325071453536402e-004	-1.332385e+001	-1.367792e+000
8.422727703536402e-004	-1.332261e+001	-1.335803e+000
8.520383953536402e-004	-1.331958e+001	-1.300669e+000
8.618040203536402e-004	-1.331227e+001	-1.262783e+000
8.679664353779519e-004	-1.330199e+001	-1.237502e+000
8.713801085732078e-004	-1.328982e+001	-1.222950e+000
8.736621543412129e-004	-1.327312e+001	-1.212994e+000
8.756610529572285e-004	-1.324488e+001	-1.204135e+000
8.777198630960096e-004	-1.319426e+001	-1.194890e+000
8.798797610871867e-004	-1.311614e+001	-1.185068e+000
8.819077491651044e-004	-1.302523e+001	-1.175728e+000
8.842662644080518e-004	-1.290901e+001	-1.164723e+000
8.868257600315979e-004	-1.277778e+001	-1.152591e+000
9.000938548020849e-004	-1.206156e+001	-1.086884e+000
9.181143303315322e-004	-1.102154e+001	-9.916391e-001
9.376455803315323e-004	-9.816641e+000	-8.814789e-001
9.571768303315323e-004	-8.546941e+000	-7.655809e-001
9.767080803315322e-004	-7.231515e+000	-6.456884e-001
9.962393303315322e-004	-5.890151e+000	-5.236046e-001
1.015770580331532e-003	-4.543042e+000	-4.011657e-001
1.035301830331532e-003	-3.210511e+000	-2.802134e-001
1.045067455331532e-003	-2.556045e+000	-2.208648e-001
1.054833080331532e-003	-1.912820e+000	-1.625669e-001
1.064598705331532e-003	-1.283521e+000	-1.055389e-001
1.074364330331532e-003	-6.724931e-001	-4.999565e-002
1.084129955331532e-003	-8.364257e-002	3.853912e-003
1.093895580331532e-003	4.938888e-001	5.608098e-002
1.098625529766819e-003	7.719654e-001	8.062147e-002
1.104335325217060e-003	1.096407e+000	1.093893e-001
1.110512777394164e-003	1.431292e+000	1.395188e-001
1.120278402394164e-003	1.939317e+000	1.851759e-001
1.130044027394164e-003	2.421330e+000	2.284719e-001
1.139809652394164e-003	2.873358e+000	2.690260e-001
1.149575277394164e-003	3.293772e+000	3.066858e-001
1.159340902394164e-003	3.681035e+000	3.413093e-001
1.169106527394164e-003	4.033697e+000	3.727664e-001
1.178872152394164e-003	4.350440e+000	4.009385e-001
1.188637777394164e-003	4.630075e+000	4.257198e-001
1.198403402394164e-003	4.871555e+000	4.470168e-001
1.208169027394164e-003	5.073974e+000	4.647495e-001
1.217934652394164e-003	5.236571e+000	4.788511e-001
1.227700277394164e-003	5.358738e+000	4.892685e-001
1.237465902394164e-003	5.440016e+000	4.959625e-001
1.247231527394164e-003	5.480100e+000	4.989079e-001
1.256997152394164e-003	5.478842e+000	4.980937e-001
1.266762777394164e-003	5.436248e+000	4.935229e-001
1.276528402394164e-003	5.352479e+000	4.852126e-001
1.286294027394164e-003	5.227854e+000	4.731943e-001
1.296059652394164e-003	5.062842e+000	4.575131e-001
1.305825277394164e-003	4.858066e+000	4.382280e-001
1.315590902394164e-003	4.614300e+000	4.154117e-001
1.325356527394164e-003	4.332463e+000	3.891499e-001
1.335122152394164e-003	4.013619e+000	3.595415e-001
1.344887777394164e-003	3.658973e+000	3.266981e-001
1.354653402394164e-003	3.269868e+000	2.907431e-001
1.364419027394164e-003	2.847780e+000	2.518120e-001
1.374184652394164e-003	2.394320e+000	2.100512e-001
1.383950277394164e-003	1.911244e+000	1.656180e-001
1.393715902394164e-003	1.400523e+000	1.186795e-001
1.403481527394164e-003	8.647091e-001	6.941243e-002
1.413247152394164e-003	3.139318e-001	1.814079e-002
1.420170876995343e-003	-8.706192e-002	-1.932899e-002
1.424436001876421e-003	-3.491145e-001	-4.295367e-002
1.429588126909818e-003	-6.761622e-001	-7.198337e-002
1.434302109513476e-003	-9.742278e-001	-9.894255e-002
1.440282758590064e-003	-1.356036e+000	-1.337348e-001
1.450048383590064e-003	-1.990321e+000	-1.915626e-001
1.459814008590064e-003	-2.635817e+000	-2.504134e-001
1.479345258590064e-003	-3.956296e+000	-3.707082e-001
1.498876508590064e-003	-5.299824e+000	-4.929476e-001
1.518407758590064e-003	-6.646345e+000	-6.152931e-001
1.537939008590064e-003	-7.975641e+000	-7.359045e-001
1.557470258590064e-003	-9.267729e+000	-8.529676e-001
1.577001508590064e-003	-1.050317e+001	-9.647218e-001
1.596532758590064e-003	-1.166334e+001	-1.069486e+000
1.606298383590064e-003	-1.220967e+001	-1.118750e+000
1.616064008590064e-003	-1.272861e+001	-1.165685e+000
1.625829633590064e-003	-1.319447e+001	-1.210590e+000
1.628682914345498e-003	-1.328089e+001	-1.223248e+000
1.630179230094504e-003	-1.329640e+001	-1.229731e+000
1.630916585934985e-003	-1.329921e+001	-1.232894e+000
1.631887992073111e-003	-1.330234e+001	-1.237027e+000
1.633383370401576e-003	-1.330611e+001	-1.243337e+000
1.635032474307095e-003	-1.330926e+001	-1.250206e+000
1.638330682118132e-003	-1.331376e+001	-1.263706e+000
1.641522542370466e-003	-1.331674e+001	-1.276465e+000
1.646029374867653e-003	-1.331942e+001	-1.293927e+000
1.651006793609364e-003	-1.332127e+001	-1.312419e+000
1.658504819385863e-003	-1.332288e+001	-1.338783e+000
1.666139283286781e-003	-1.332379e+001	-1.363726e+000
1.675904908286781e-003	-1.332438e+001	-1.392733e+000
1.685670533286781e-003	-1.332469e+001	-1.418555e+000
1.695436158286781e-003	-1.332486e+001	-1.440919e+000
1.705201783286781e-003	-1.332495e+001	-1.459743e+000
1.714967408286781e-003	-1.332500e+001	-1.474954e+000
1.724733033286781e-003	-1.332503e+001	-1.486495e+000
1.734498658286781e-003	-1.332505e+001	-1.494324e+000
1.744264283286781e-003	-1.332505e+001	-1.498410e+000
1.754029908286781e-003	-1.332505e+001	-1.498739e+000
1.763795533286781e-003	-1.332505e+001	-1.495308e+000
1.773561158286781e-003	-1.332504e+001	-1.488132e+000
1.783326783286781e-003	-1.332501e+001	-1.477236e+000
1.793092408286781e-003	-1.332496e+001	-1.462662e+000
1.802858033286781e-003	-1.332488e+001	-1.444465e+000
1.812623658286781e-003	-1.332473e+001	-1.422713e+000
1.822389283286781e-003	-1.332444e+001	-1.397488e+000
1.832154908286781e-003	-1.332388e+001	-1.368885e+000
1.841920533286781e-003	-1.332268e+001	-1.337012e+000
1.851686158286781e-003	-1.331975e+001	-1.301989e+000
1.861451783286781e-003	-1.331279e+001	-1.264218e+000
1.867504321118730e-003	-1.330329e+001	-1.239458e+000
1.870991085393735e-003	-1.329183e+001	-1.224634e+000
1.873305430407696e-003	-1.327648e+001	-1.214562e+000
1.875340480244619e-003	-1.325076e+001	-1.205564e+000
1.877310725842003e-003	-1.320655e+001	-1.196737e+000
1.879454407509958e-003	-1.313262e+001	-1.187006e+000
1.881946672623926e-003	-1.302287e+001	-1.175540e+000
1.884321724259825e-003	-1.290634e+001	-1.164463e+000
1.886871704627625e-003	-1.277556e+001	-1.152382e+000
1.906195854598403e-003	-1.171832e+001	-1.055432e+000
1.925727104598403e-003	-1.056079e+001	-9.494919e-001
1.945258354598403e-003	-9.328420e+000	-8.368928e-001
1.964789604598403e-003	-8.038582e+000	-7.192267e-001
1.984320854598403e-003	-6.710665e+000	-5.982631e-001
2.003852104598402e-003	-5.364646e+000	-4.758216e-001
2.023383354598402e-003	-4.020804e+000	-3.537438e-001
2.042914604598402e-003	-2.699446e+000	-2.338658e-001
2.052680229598401e-003	-2.053523e+000	-1.753172e-001
2.062445854598401e-003	-1.420907e+000	-1.179907e-001
2.072211479598401e-003	-8.049872e-001	-6.210195e-002
2.081977104598401e-003	-2.132125e-001	-7.726133e-003
2.088965123323541e-003	2.000905e-001	3.019250e-002
2.092640374370976e-003	4.218203e-001	4.967026e-002
2.097118268773088e-003	6.884091e-001	7.289132e-002
2.103015084313469e-003	1.022351e+000	1.027621e-001
2.109921290189086e-003	1.399078e+000	1.366158e-001
2.119686915189086e-003	1.909209e+000	1.824690e-001
2.129452540189086e-003	2.392962e+000	2.259259e-001
2.139218165189086e-003	2.846850e+000	2.666506e-001
2.148983790189085e-003	3.269240e+000	3.044898e-001
2.158749415189085e-003	3.658549e+000	3.393011e-001
2.168515040189085e-003	4.013347e+000	3.709534e-001
2.178280665189085e-003	4.332299e+000	3.993277e-001
2.188046290189085e-003	4.614214e+000	4.243171e-001
2.197811915189084e-003	4.858032e+000	4.458275e-001
2.207577540189084e-003	5.062840e+000	4.637781e-001
2.217343165189084e-003	5.227868e+000	4.781013e-001
2.227108790189084e-003	5.352498e+000	4.887431e-001
2.236874415189083e-003	5.436262e+000	4.956635e-001
2.246640040189083e-003	5.478848e+000	4.988364e-001
2.256405665189083e-003	5.480095e+000	4.982500e-001
2.266171290189083e-003	5.440001e+000	4.939063e-001
2.275936915189083e-003	5.358720e+000	4.858218e-001
2.285702540189082e-003	5.236557e+000	4.740270e-001
2.295468165189082e-003	5.073975e+000	4.585661e-001
2.305233790189082e-003	4.871587e+000	4.394973e-001
2.314999415189082e-003	4.630157e+000	4.168925e-001
2.324765040189082e-003	4.350597e+000	3.908367e-001
2.334530665189081e-003	4.033962e+000	3.614281e-001
2.344296290189081e-003	3.681448e+000	3.287772e-001
2.354061915189081e-003	3.294389e+000	2.930070e-001
2.363827540189081e-003	2.874254e+000	2.542520e-001
2.373593165189081e-003	2.422646e+000	2.126583e-001
2.383358790189080e-003	1.941311e+000	1.683822e-001
2.393124415189080e-003	1.432203e+000	1.215905e-001
2.402890040189080e-003	8.977960e-001	7.245933e-002
2.412655665189080e-003	3.475972e-001	2.131705e-002
2.419496661378546e-003	-4.764592e-002	-1.563546e-002
2.424293042647120e-003	-3.405018e-001	-4.218255e-002
2.430147329366703e-003	-7.112797e-001	-7.518812e-002
2.435413809044212e-003	-1.044791e+000	-1.053528e-001
2.440935221562445e-003	-1.397686e+000	-1.375338e-001
2.450700846562444e-003	-2.033071e+000	-1.954608e-001
2.460466471562444e-003	-2.679346e+000	-2.543814e-001
2.479997721562444e-003	-4.000916e+000	-3.747705e-001
2.499528971562443e-003	-5.344871e+000	-4.970432e-001
2.519060221562443e-003	-6.691142e+000	-6.193604e-001
2.538591471562443e-003	-8.019516e+000	-7.398823e-001
2.558122721562442e-003	-9.310020e+000	-8.567961e-001
2.577653971562442e-003	-1.054324e+001	-9.683435e-001
2.597185221562441e-003	-1.170059e+001	-1.072846e+000
2.606950846562441e-003	-1.224529e+001	-1.121960e+000
2.616716471562441e-003	-1.275982e+001	-1.168733e+000
2.626482096562441e-003	-1.321707e+001	-1.213498e+000
2.628892482665000e-003	-1.328398e+001	-1.224157e+000
2.630636852090019e-003	-1.329813e+001	-1.231693e+000
2.631352370620365e-003	-1.330067e+001	-1.234754e+000
2.632298262703977e-003	-1.330361e+001	-1.238770e+000
2.633331458998443e-003	-1.330612e+001	-1.243128e+000
2.634465356556419e-003	-1.330837e+001	-1.247866e+000
2.636733151672370e-003	-1.331188e+001	-1.257223e+000
2.639398710962965e-003	-1.331489e+001	-1.268010e+000
2.643824869490795e-003	-1.331824e+001	-1.285459e+000
2.648178406426524e-003	-1.332031e+001	-1.301974e+000
2.655765459075763e-003	-1.332236e+001	-1.329254e+000
2.664137710535507e-003	-1.332360e+001	-1.357278e+000
2.673903335535507e-003	-1.332429e+001	-1.387022e+000
2.683668960535506e-003	-1.332464e+001	-1.413541e+000
2.693434585535506e-003	-1.332483e+001	-1.436621e+000
2.703200210535506e-003	-1.332493e+001	-1.456177e+000
2.712965835535506e-003	-1.332499e+001	-1.472133e+000
2.722731460535506e-003	-1.332503e+001	-1.484431e+000
2.732497085535505e-003	-1.332504e+001	-1.493024e+000
2.742262710535505e-003	-1.332505e+001	-1.497879e+000
2.752028335535505e-003	-1.332505e+001	-1.498978e+000
2.761793960535505e-003	-1.332505e+001	-1.496317e+000
2.771559585535505e-003	-1.332504e+001	-1.489907e+000
2.781325210535504e-003	-1.332502e+001	-1.479770e+000
2.791090835535504e-003	-1.332498e+001	-1.465946e+000
2.800856460535504e-003	-1.332490e+001	-1.448487e+000
2.810622085535504e-003	-1.332477e+001	-1.427457e+000
2.820387710535503e-003	-1.332452e+001	-1.402937e+000
2.830153335535503e-003	-1.332403e+001	-1.375018e+000
2.839918960535503e-003	-1.332301e+001	-1.343806e+000
2.849684585535503e-003	-1.332059e+001	-1.309418e+000
2.859450210535503e-003	-1.331361e+001	-1.271984e+000
2.869215835535502e-003	-1.329617e+001	-1.232076e+000
2.872804547301994e-003	-1.327862e+001	-1.216729e+000
2.875331109025724e-003	-1.324981e+001	-1.205599e+000
2.877341376566355e-003	-1.320525e+001	-1.196597e+000
2.879594378933988e-003	-1.312682e+001	-1.186365e+000
2.882052367667492e-003	-1.301792e+001	-1.175051e+000
2.884433871195323e-003	-1.290066e+001	-1.163936e+000
2.886983480640920e-003	-1.276974e+001	-1.151847e+000
2.907091921177586e-003	-1.166704e+001	-1.050735e+000
2.926623171177585e-003	-1.050577e+001	-9.444613e-001
2.946154421177585e-003	-9.270356e+000	-8.315921e-001
2.965685671177585e-003	-7.978342e+000	-7.137355e-001
2.985216921177584e-003	-6.649153e+000	-5.926641e-001
3.004748171177584e-003	-5.302790e+000	-4.701989e-001
3.024279421177583e-003	-3.959536e+000	-3.481819e-001
3.034045046177583e-003	-3.295423e+000	-2.879160e-001
3.043810671177583e-003	-2.639694e+000	-2.284484e-001
3.053576296177583e-003	-1.994879e+000	-1.700029e-001
3.063341921177582e-003	-1.363625e+000	-1.127993e-001
3.073107546177582e-003	-7.496033e-001	-5.705316e-002
3.082873171177582e-003	-1.586857e-001	-2.974126e-003
3.092638796177582e-003	4.192035e-001	4.952418e-002
3.097004973559549e-003	6.780881e-001	7.232539e-002
3.102354910688281e-003	9.861655e-001	9.949707e-002
3.108465943789108e-003	1.320912e+000	1.295932e-001
3.118231568789108e-003	1.834656e+000	1.757687e-001
3.127997193789108e-003	2.322717e+000	2.196190e-001
3.137762818789107e-003	2.781169e+000	2.607609e-001
3.147528443789107e-003	3.208354e+000	2.990394e-001
3.157294068789107e-003	3.602685e+000	3.343105e-001
3.167059693789107e-003	3.962714e+000	3.664415e-001
3.176825318789107e-003	4.287088e+000	3.953113e-001
3.186590943789106e-003	4.574593e+000	4.208114e-001
3.196356568789106e-003	4.824150e+000	4.428458e-001
3.206122193789106e-003	5.034823e+000	4.613315e-001
3.215887818789106e-003	5.205822e+000	4.761990e-001
3.225653443789106e-003	5.336506e+000	4.873923e-001
3.235419068789105e-003	5.426384e+000	4.948693e-001
3.245184693789105e-003	5.475121e+000	4.986018e-001
3.254950318789105e-003	5.482533e+000	4.985758e-001
3.264715943789105e-003	5.448594e+000	4.947914e-001
3.274481568789105e-003	5.373435e+000	4.872628e-001
3.284247193789104e-003	5.257339e+000	4.760184e-001
3.294012818789104e-003	5.100744e+000	4.611005e-001
3.303778443789104e-003	4.904244e+000	4.425652e-001
3.313544068789104e-003	4.668579e+000	4.204823e-001
3.323309693789103e-003	4.394638e+000	3.949349e-001
3.333075318789103e-003	4.083455e+000	3.660192e-001
3.342840943789103e-003	3.736207e+000	3.338440e-001
3.352606568789103e-003	3.354206e+000	2.985304e-001
3.362372193789103e-003	2.938902e+000	2.602113e-001
3.372137818789102e-003	2.491877e+000	2.190309e-001
3.381903443789102e-003	2.014855e+000	1.751442e-001
3.391669068789102e-003	1.509752e+000	1.287165e-001
3.401434693789102e-003	9.788926e-001	7.992244e-002
3.411200318789102e-003	4.293299e-001	2.909056e-002
3.418058296987953e-003	3.177904e-002	-7.883431e-003
3.426885656304195e-003	-5.032211e-001	-5.679044e-002
