time	V(3)	V(6)
Step Information: Voutoff=0  (Run: 1/7)
0.000000000000000e+000	-7.929628e-004	-4.261736e-003
6.250000073038109e-009	-7.737289e-004	-4.261706e-003
1.250000014607622e-008	-7.401879e-004	-4.261152e-003
5.000000058430487e-008	-5.054834e-004	-4.229976e-003
1.000000011686097e-007	-1.926619e-004	-4.116820e-003
2.000000023372195e-007	4.314870e-004	-3.659417e-003
4.000000046744390e-007	1.680693e-003	-1.881702e-003
8.000000093488779e-007	4.180863e-003	4.717374e-003
1.600000018697756e-006	9.187473e-003	2.810377e-002
3.200000037395512e-006	1.921608e-002	1.006590e-001
5.136835929586265e-006	3.137034e-002	2.166031e-001
7.481848307139263e-006	4.608857e-002	3.763490e-001
1.163471156504089e-005	7.212870e-002	6.669241e-001
1.597758237007132e-005	9.929420e-002	9.686964e-001
2.325544236768513e-005	1.446006e-001	1.469417e+000
3.302106736768513e-005	2.049074e-001	2.134996e+000
4.278669236768513e-005	2.644709e-001	2.792367e+000
6.231794236768513e-005	3.803821e-001	4.072650e+000
7.208356736768512e-005	4.362936e-001	4.690855e+000
8.184919236768512e-005	4.905599e-001	5.291363e+000
9.161481736768511e-005	5.429769e-001	5.871915e+000
1.013804423676851e-004	5.933473e-001	6.430336e+000
1.111460673676851e-004	6.414814e-001	6.964524e+000
1.209116923676851e-004	6.871982e-001	7.472472e+000
1.306773173676851e-004	7.303255e-001	7.952270e+000
1.404429423676851e-004	7.707010e-001	8.402113e+000
1.502085673676851e-004	8.081728e-001	8.820309e+000
1.599741923676851e-004	8.425998e-001	9.205283e+000
1.697398173676851e-004	8.738525e-001	9.555589e+000
1.795054423676852e-004	9.018132e-001	9.869907e+000
1.892710673676852e-004	9.263768e-001	1.014706e+001
1.990366923676852e-004	9.474506e-001	1.038599e+001
2.088023173676852e-004	9.649555e-001	1.058582e+001
2.185679423676852e-004	9.788256e-001	1.074579e+001
2.283335673676852e-004	9.890085e-001	1.086529e+001
2.380991923676852e-004	9.954661e-001	1.094388e+001
2.478648173676852e-004	9.981740e-001	1.098127e+001
2.576304423676852e-004	9.971219e-001	1.097730e+001
2.673960673676852e-004	9.923140e-001	1.093201e+001
2.771616923676852e-004	9.837683e-001	1.084556e+001
2.869273173676852e-004	9.715168e-001	1.071828e+001
2.966929423676852e-004	9.556059e-001	1.055064e+001
3.064585673676852e-004	9.360952e-001	1.034328e+001
3.162241923676852e-004	9.130583e-001	1.009698e+001
3.259898173676853e-004	8.865819e-001	9.812669e+000
3.357554423676853e-004	8.567656e-001	9.491415e+000
3.455210673676853e-004	8.237217e-001	9.134430e+000
3.552866923676853e-004	7.875745e-001	8.743055e+000
3.650523173676853e-004	7.484600e-001	8.318766e+000
3.748179423676853e-004	7.065255e-001	7.863160e+000
3.845835673676853e-004	6.619288e-001	7.377952e+000
3.943491923676853e-004	6.148378e-001	6.864968e+000
4.041148173676853e-004	5.654297e-001	6.326141e+000
4.138804423676853e-004	5.138905e-001	5.763501e+000
4.236460673676853e-004	4.604141e-001	5.179169e+000
4.334116923676854e-004	4.052019e-001	4.575347e+000
4.529429423676854e-004	2.904069e-001	3.318439e+000
4.627085673676854e-004	2.312561e-001	2.670131e+000
4.724741923676854e-004	1.712321e-001	2.011916e+000
4.822398173676854e-004	1.105610e-001	1.346581e+000
4.920054423676854e-004	4.947690e-002	6.787645e-001
5.004096891994070e-004	-3.254798e-003	1.062549e-001
5.101753141994070e-004	-6.455242e-002	-5.653722e-001
5.144342347612440e-004	-9.123639e-002	-8.652217e-001
5.197452230780257e-004	-1.243989e-001	-1.236769e+000
5.256385822627249e-004	-1.609940e-001	-1.640600e+000
5.354042072627250e-004	-2.211087e-001	-2.304009e+000
5.451698322627250e-004	-2.804491e-001	-2.958951e+000
5.647010822627250e-004	-3.957526e-001	-4.232690e+000
5.842323322627250e-004	-5.051154e-001	-5.442625e+000
6.037635822627250e-004	-6.068927e-001	-6.570684e+000
6.232948322627250e-004	-6.995536e-001	-7.599933e+000
6.428260822627251e-004	-7.817045e-001	-8.514905e+000
6.623573322627251e-004	-8.521097e-001	-9.301846e+000
6.818885822627251e-004	-9.097104e-001	-9.948926e+000
7.014198322627251e-004	-9.536401e-001	-1.044642e+001
7.209510822627251e-004	-9.832381e-001	-1.078685e+001
7.404823322627251e-004	-9.980592e-001	-1.096510e+001
7.600135822627252e-004	-9.978805e-001	-1.097849e+001
7.795448322627252e-004	-9.827046e-001	-1.082680e+001
7.990760822627252e-004	-9.527600e-001	-1.051233e+001
8.186073322627252e-004	-9.084968e-001	-1.003980e+001
8.381385822627252e-004	-8.505809e-001	-9.416325e+000
8.576698322627252e-004	-7.798834e-001	-8.651292e+000
8.772010822627253e-004	-6.974677e-001	-7.756216e+000
8.967323322627253e-004	-6.045734e-001	-6.744569e+000
9.162635822627253e-004	-5.025976e-001	-5.631580e+000
9.357948322627253e-004	-3.930743e-001	-4.434016e+000
9.553260822627253e-004	-2.776508e-001	-3.169964e+000
9.650917072627253e-004	-2.182663e-001	-2.518979e+000
9.748573322627253e-004	-1.580635e-001	-1.858739e+000
9.846229572627254e-004	-9.726912e-002	-1.192135e+000
9.943885822627254e-004	-3.612068e-002	-5.247139e-001
1.001015155381929e-003	5.469169e-003	-7.347368e-002
1.010538237889640e-003	6.524095e-002	5.834228e-001
1.014971184660418e-003	9.300920e-002	8.954903e-001
1.020257529387485e-003	1.260061e-001	1.264340e+000
1.026147381428435e-003	1.625613e-001	1.667639e+000
1.035913006428435e-003	2.226371e-001	2.330652e+000
1.045678631428435e-003	2.819282e-001	2.985111e+000
1.065209881428435e-003	3.970985e-001	4.257429e+000
1.074975506428435e-003	4.525445e-001	4.870634e+000
1.084741131428435e-003	5.062842e-001	5.465463e+000
1.094506756428435e-003	5.581153e-001	6.039686e+000
1.104272381428435e-003	6.078428e-001	6.591145e+000
1.114038006428435e-003	6.552795e-001	7.117767e+000
1.123803631428435e-003	7.002470e-001	7.617574e+000
1.133569256428435e-003	7.425758e-001	8.088684e+000
1.143334881428435e-003	7.821068e-001	8.529326e+000
1.153100506428435e-003	8.186912e-001	8.937843e+000
1.162866131428435e-003	8.521912e-001	9.312696e+000
1.172631756428435e-003	8.824807e-001	9.652476e+000
1.182397381428435e-003	9.094458e-001	9.955905e+000
1.192163006428435e-003	9.329850e-001	1.022184e+001
1.201928631428435e-003	9.530096e-001	1.044928e+001
1.211694256428435e-003	9.694443e-001	1.063738e+001
1.221459881428435e-003	9.822273e-001	1.078542e+001
1.231225506428435e-003	9.913104e-001	1.089284e+001
1.240991131428435e-003	9.966595e-001	1.095926e+001
1.250756756428435e-003	9.982544e-001	1.098440e+001
1.260522381428435e-003	9.960891e-001	1.096819e+001
1.270288006428435e-003	9.901717e-001	1.091069e+001
1.280053631428435e-003	9.805247e-001	1.081210e+001
1.289819256428435e-003	9.671841e-001	1.067281e+001
1.299584881428435e-003	9.502002e-001	1.049334e+001
1.309350506428435e-003	9.296371e-001	1.027436e+001
1.319116131428435e-003	9.055720e-001	1.001670e+001
1.328881756428435e-003	8.780956e-001	9.721333e+000
1.338647381428435e-003	8.473112e-001	9.389366e+000
1.348413006428435e-003	8.133348e-001	9.022050e+000
1.358178631428435e-003	7.762942e-001	8.620770e+000
1.367944256428435e-003	7.363287e-001	8.187035e+000
1.377709881428435e-003	6.935890e-001	7.722478e+000
1.387475506428435e-003	6.482357e-001	7.228849e+000
1.397241131428435e-003	6.004397e-001	6.708007e+000
1.407006756428435e-003	5.503807e-001	6.161912e+000
1.416772381428435e-003	4.982473e-001	5.592623e+000
1.426538006428435e-003	4.442356e-001	5.002286e+000
1.436303631428435e-003	3.885489e-001	4.393128e+000
1.455834881428435e-003	2.729945e-001	3.127636e+000
1.465600506428435e-003	2.135618e-001	2.476127e+000
1.475366131428435e-003	1.533225e-001	1.815503e+000
1.485131756428435e-003	9.250361e-002	1.148706e+000
1.494897381428435e-003	3.134254e-002	4.822052e-001
1.501456734053096e-003	-9.829167e-003	3.619214e-002
1.509870809882041e-003	-6.264417e-002	-5.452641e-001
1.514491114738639e-003	-9.159175e-002	-8.706588e-001
1.519758391485391e-003	-1.244827e-001	-1.237759e+000
1.525456164527711e-003	-1.598661e-001	-1.628129e+000
1.535221789527711e-003	-2.199916e-001	-2.291668e+000
1.544987414527711e-003	-2.793496e-001	-2.946831e+000
1.564518664527711e-003	-3.947005e-001	-4.221058e+000
1.584049914527711e-003	-5.041266e-001	-5.431675e+000
1.603581164527711e-003	-6.059819e-001	-6.560580e+000
1.623112414527711e-003	-6.987348e-001	-7.590826e+000
1.642643664527711e-003	-7.809898e-001	-8.506931e+000
1.662174914527711e-003	-8.515099e-001	-9.295126e+000
1.681706164527711e-003	-9.092345e-001	-9.943562e+000
1.701237414527711e-003	-9.532953e-001	-1.044249e+001
1.720768664527711e-003	-9.830295e-001	-1.078442e+001
1.740299914527711e-003	-9.979900e-001	-1.096420e+001
1.759831164527711e-003	-9.979517e-001	-1.097913e+001
1.779362414527712e-003	-9.829153e-001	-1.082898e+001
1.798893664527712e-003	-9.531068e-001	-1.051601e+001
1.818424914527712e-003	-9.089746e-001	-1.004492e+001
1.837956164527712e-003	-8.511825e-001	-9.422819e+000
1.857487414527712e-003	-7.805997e-001	-8.659059e+000
1.877018664527712e-003	-6.982880e-001	-7.765138e+000
1.896549914527712e-003	-6.054853e-001	-6.754511e+000
1.916081164527712e-003	-5.035874e-001	-5.642394e+000
1.935612414527712e-003	-3.941272e-001	-4.445539e+000
1.955143664527711e-003	-2.787509e-001	-3.182019e+000
1.964909289527711e-003	-2.193838e-001	-2.531233e+000
1.974674914527711e-003	-1.591942e-001	-1.871140e+000
1.984440539527711e-003	-9.840876e-002	-1.204621e+000
1.994206164527711e-003	-3.726511e-002	-5.370241e-001
2.000853712553988e-003	4.455184e-003	-8.427677e-002
2.010619337553988e-003	6.574916e-002	5.889362e-001
2.014988143450349e-003	9.311536e-002	8.964648e-001
2.020291861120315e-003	1.262195e-001	1.266685e+000
2.026224342166230e-003	1.630374e-001	1.672896e+000
2.035989967166230e-003	2.231079e-001	2.335848e+000
2.045755592166230e-003	2.823915e-001	2.990227e+000
2.065286842166230e-003	3.975416e-001	4.262327e+000
2.075052467166229e-003	4.529749e-001	4.875396e+000
2.084818092166229e-003	5.067004e-001	5.470072e+000
2.094583717166229e-003	5.585157e-001	6.044124e+000
2.104349342166229e-003	6.082258e-001	6.595395e+000
2.114114967166229e-003	6.556438e-001	7.121814e+000
2.123880592166228e-003	7.005911e-001	7.621401e+000
2.133646217166228e-003	7.428985e-001	8.092278e+000
2.143411842166228e-003	7.824069e-001	8.532673e+000
2.153177467166228e-003	8.189675e-001	8.940930e+000
2.162943092166227e-003	8.524426e-001	9.315513e+000
2.172708717166227e-003	8.827063e-001	9.655011e+000
2.182474342166227e-003	9.096448e-001	9.958149e+000
2.192239967166227e-003	9.331566e-001	1.022379e+001
2.202005592166227e-003	9.531533e-001	1.045092e+001
2.211771217166226e-003	9.695594e-001	1.063870e+001
2.221536842166226e-003	9.823134e-001	1.078642e+001
2.231302467166226e-003	9.913672e-001	1.089353e+001
2.241068092166226e-003	9.966868e-001	1.095962e+001
2.250833717166226e-003	9.982520e-001	1.098444e+001
2.260599342166225e-003	9.960571e-001	1.096790e+001
2.270364967166225e-003	9.901103e-001	1.091007e+001
2.280130592166225e-003	9.804339e-001	1.081116e+001
2.289896217166225e-003	9.670644e-001	1.067155e+001
2.299661842166225e-003	9.500521e-001	1.049177e+001
2.309427467166224e-003	9.294610e-001	1.027248e+001
2.319193092166224e-003	9.053687e-001	1.001452e+001
2.328958717166224e-003	8.778657e-001	9.718858e+000
2.338724342166224e-003	8.470557e-001	9.386607e+000
2.348489967166224e-003	8.130547e-001	9.019018e+000
2.358255592166223e-003	7.759904e-001	8.617476e+000
2.368021217166223e-003	7.360026e-001	8.183492e+000
2.377786842166223e-003	6.932415e-001	7.718699e+000
2.387552467166223e-003	6.478683e-001	7.224848e+000
2.397318092166222e-003	6.000537e-001	6.703799e+000
2.407083717166222e-003	5.499777e-001	6.157514e+000
2.416849342166222e-003	4.978287e-001	5.588050e+000
2.426614967166222e-003	4.438030e-001	4.997556e+000
2.436380592166222e-003	3.881039e-001	4.388259e+000
2.455911842166221e-003	2.725299e-001	3.122544e+000
2.465677467166221e-003	2.130900e-001	2.470953e+000
2.475443092166221e-003	1.528452e-001	1.810268e+000
2.485208717166221e-003	9.202263e-002	1.143438e+000
2.494974342166220e-003	3.085968e-002	4.770750e-001
2.501527761277908e-003	-1.027531e-002	3.151628e-002
2.509799495621297e-003	-6.219690e-002	-5.403794e-001
2.514508015500320e-003	-9.169713e-002	-8.719890e-001
2.519786620012039e-003	-1.246586e-001	-1.239719e+000
2.525483546992556e-003	-1.600359e-001	-1.630000e+000
2.535249171992556e-003	-2.201593e-001	-2.293519e+000
2.545014796992556e-003	-2.795147e-001	-2.948653e+000
2.564546046992555e-003	-3.948585e-001	-4.222804e+000
2.584077296992555e-003	-5.042751e-001	-5.433319e+000
2.603608546992554e-003	-6.061187e-001	-6.562098e+000
2.623139796992554e-003	-6.988577e-001	-7.592194e+000
2.642671046992554e-003	-7.810972e-001	-8.508129e+000
2.652436671992553e-003	-8.178863e-001	-8.918911e+000
2.671967921992553e-003	-8.821115e-001	-9.638384e+000
2.691499171992553e-003	-9.330810e-001	-1.021294e+001
2.711030421992552e-003	-9.700280e-001	-1.063394e+001
2.730561671992552e-003	-9.923968e-001	-1.089505e+001
2.750092921992551e-003	-9.998509e-001	-1.099236e+001
2.769624171992551e-003	-9.922783e-001	-1.092439e+001
2.789155421992551e-003	-9.697928e-001	-1.069217e+001
2.808686671992550e-003	-9.327326e-001	-1.029918e+001
2.828217921992550e-003	-8.816553e-001	-9.751343e+000
2.847749171992549e-003	-8.173289e-001	-9.056904e+000
2.867280421992549e-003	-7.407210e-001	-8.226316e+000
2.886811671992548e-003	-6.529840e-001	-7.272083e+000
2.906342921992548e-003	-5.554374e-001	-6.208565e+000
2.925874171992548e-003	-4.495485e-001	-5.051778e+000
2.945405421992547e-003	-3.369100e-001	-3.819163e+000
2.955171046992547e-003	-2.785858e-001	-3.180210e+000
2.964936671992547e-003	-2.192161e-001	-2.529394e+000
2.974702296992547e-003	-1.590245e-001	-1.869279e+000
2.984467921992546e-003	-9.823770e-002	-1.202747e+000
2.994233546992546e-003	-3.709333e-002	-5.351818e-001
3.000879840578338e-003	4.619239e-003	-8.251610e-002
3.010632246150981e-003	6.582785e-002	5.900208e-001
3.015373498853334e-003	9.552433e-002	9.236678e-001
3.020568888999463e-003	1.279450e-001	1.285891e+000
3.026664202178096e-003	1.657591e-001	1.702914e+000
3.036429827178096e-003	2.257980e-001	2.365537e+000
3.046195452178096e-003	2.850383e-001	3.019448e+000
3.065726702178095e-003	4.000723e-001	4.290304e+000
3.075492327178095e-003	4.554331e-001	4.902594e+000
3.085257952178095e-003	5.090767e-001	5.496388e+000
3.095023577178095e-003	5.608014e-001	6.069459e+000
3.104789202178094e-003	6.104123e-001	6.619655e+000
3.114554827178094e-003	6.577227e-001	7.144907e+000
3.124320452178094e-003	7.025547e-001	7.643241e+000
3.134086077178094e-003	7.447394e-001	8.112783e+000
3.143851702178094e-003	7.841181e-001	8.551765e+000
3.153617327178093e-003	8.205426e-001	8.958537e+000
3.163382952178093e-003	8.538757e-001	9.331569e+000
3.173148577178093e-003	8.839920e-001	9.669456e+000
3.182914202178093e-003	9.107783e-001	9.970928e+000
3.192679827178092e-003	9.341335e-001	1.023485e+001
3.202445452178092e-003	9.539700e-001	1.046023e+001
3.212211077178092e-003	9.702128e-001	1.064622e+001
3.221976702178092e-003	9.828011e-001	1.079212e+001
3.231742327178092e-003	9.916874e-001	1.089739e+001
3.241507952178091e-003	9.968381e-001	1.096162e+001
3.251273577178091e-003	9.982340e-001	1.098458e+001
3.261039202178091e-003	9.958698e-001	1.096618e+001
3.270804827178091e-003	9.897544e-001	1.090650e+001
3.280570452178091e-003	9.799108e-001	1.080575e+001
3.290336077178090e-003	9.663760e-001	1.066432e+001
3.300101702178090e-003	9.492010e-001	1.048273e+001
3.309867327178090e-003	9.284505e-001	1.026169e+001
3.319632952178090e-003	9.042025e-001	1.000201e+001
3.329398577178090e-003	8.765483e-001	9.704671e+000
3.339164202178089e-003	8.455920e-001	9.370800e+000
3.348929827178089e-003	8.114501e-001	9.001652e+000
3.358695452178089e-003	7.742511e-001	8.598615e+000
3.368461077178089e-003	7.341350e-001	8.163206e+000
3.378226702178089e-003	6.912528e-001	7.697067e+000
3.387992327178088e-003	6.457659e-001	7.201950e+000
3.397757952178088e-003	5.978455e-001	6.679721e+000
3.407523577178088e-003	5.476720e-001	6.132347e+000
3.417289202178088e-003	4.954341e-001	5.561889e+000
3.427054827178087e-003	4.413286e-001	4.970499e+000
3.436820452178087e-003	3.855591e-001	4.360409e+000
3.456351702178087e-003	2.698731e-001	3.093428e+000
3.466117327178087e-003	2.103921e-001	2.441370e+000
3.475882952178086e-003	1.501164e-001	1.780339e+000
3.485648577178086e-003	8.927315e-002	1.113325e+000
3.495414202178086e-003	2.809982e-002	4.478584e-001
3.501958764077028e-003	-1.298392e-002	4.286787e-003
3.508142770928096e-003	-5.181086e-002	-4.239517e-001
3.512446043824367e-003	-7.879362e-002	-7.286767e-001
3.517204118012713e-003	-1.085531e-001	-1.061569e+000
3.522152983090080e-003	-1.393643e-001	-1.401860e+000
3.531918608090080e-003	-1.997160e-001	-2.067936e+000
3.541684233090080e-003	-2.593783e-001	-2.726355e+000
3.561215483090079e-003	-3.755618e-001	-4.009522e+000
3.580746733090079e-003	-4.861083e-001	-5.232191e+000
3.600277983090078e-003	-5.893551e-001	-6.376142e+000
3.619809233090078e-003	-6.837494e-001	-7.424203e+000
3.639340483090078e-003	-7.678713e-001	-8.360630e+000
3.658871733090077e-003	-8.404557e-001	-9.171345e+000
3.678402983090077e-003	-9.004107e-001	-9.844161e+000
3.697934233090076e-003	-9.468347e-001	-1.036897e+001
3.717465483090076e-003	-9.790293e-001	-1.073787e+001
3.736996733090075e-003	-9.965103e-001	-1.094533e+001
3.756527983090075e-003	-9.990149e-001	-1.098822e+001
3.776059233090075e-003	-9.865052e-001	-1.086590e+001
3.795590483090074e-003	-9.591694e-001	-1.058021e+001
3.815121733090074e-003	-9.174189e-001	-1.013543e+001
3.834652983090073e-003	-8.618814e-001	-9.538268e+000
3.854184233090073e-003	-7.933924e-001	-8.797713e+000
3.873715483090073e-003	-7.129818e-001	-7.924911e+000
3.893246733090072e-003	-6.218594e-001	-6.933000e+000
3.912777983090072e-003	-5.213956e-001	-5.836908e+000
3.932309233090072e-003	-4.131014e-001	-4.653148e+000
3.951840483090071e-003	-2.986058e-001	-3.399582e+000
3.961606108090071e-003	-2.395678e-001	-2.752532e+000
3.971371733090071e-003	-1.796311e-001	-2.095281e+000
3.981137358090071e-003	-1.190216e-001	-1.430561e+000
3.990902983090071e-003	-5.796887e-002	-7.628525e-001
4.000668608090070e-003	3.295958e-003	-9.687196e-002
4.010434233090070e-003	6.458378e-002	5.761406e-001
4.015651826172014e-003	9.726237e-002	9.431483e-001
4.020863997156200e-003	1.297823e-001	1.306388e+000
4.027057240625845e-003	1.681906e-001	1.729720e+000
4.036822865625845e-003	2.282002e-001	2.392053e+000
4.046588490625845e-003	2.874015e-001	3.045537e+000
4.066119740625845e-003	4.023309e-001	4.315275e+000
4.075885365625844e-003	4.576266e-001	4.926865e+000
4.085650990625844e-003	5.111969e-001	5.519867e+000
4.095416615625844e-003	5.628402e-001	6.092059e+000
4.105182240625844e-003	6.123620e-001	6.641290e+000
4.114947865625843e-003	6.595761e-001	7.165497e+000
4.124713490625843e-003	7.043048e-001	7.662707e+000
4.134479115625843e-003	7.463795e-001	8.131052e+000
4.144244740625843e-003	7.856421e-001	8.568769e+000
4.154010365625843e-003	8.219447e-001	8.974213e+000
4.163775990625842e-003	8.551507e-001	9.345856e+000
4.173541615625842e-003	8.851351e-001	9.682301e+000
4.183307240625842e-003	9.117851e-001	9.982283e+000
4.193072865625842e-003	9.350004e-001	1.024467e+001
4.202838490625842e-003	9.546936e-001	1.046848e+001
4.212604115625841e-003	9.707904e-001	1.065287e+001
4.222369740625841e-003	9.832305e-001	1.079715e+001
4.232135365625841e-003	9.919670e-001	1.090077e+001
4.241900990625841e-003	9.969669e-001	1.096335e+001
4.251666615625841e-003	9.982114e-001	1.098464e+001
4.261432240625840e-003	9.956960e-001	1.096458e+001
4.271197865625840e-003	9.894300e-001	1.090323e+001
4.280963490625840e-003	9.794370e-001	1.080084e+001
4.290729115625840e-003	9.657547e-001	1.065778e+001
4.300494740625840e-003	9.484345e-001	1.047459e+001
4.310260365625839e-003	9.275416e-001	1.025198e+001
4.320025990625839e-003	9.031546e-001	9.990760e+000
4.329791615625839e-003	8.753654e-001	9.691931e+000
