Freq.	V(6)
Step Information: Vcm=-12.84  (Run: 1/11)
1.00000000000000e+000	(1.57664499879562e+001dB,-6.15150108556035e-004°)
1.02329299228075e+000	(1.57664499879330e+001dB,-6.29478795285028e-004°)
1.04712854805090e+000	(1.57664499879088e+001dB,-6.44141240003316e-004°)
1.07151930523761e+000	(1.57664499878835e+001dB,-6.59145216933148e-004°)
1.09647819614318e+000	(1.57664499878569e+001dB,-6.74498681381712e-004°)
1.12201845430196e+000	(1.57664499878291e+001dB,-6.90209773959063e-004°)
1.14815362149688e+000	(1.57664499878000e+001dB,-7.06286824894434e-004°)
1.17489755493953e+000	(1.57664499877695e+001dB,-7.22738358453032e-004°)
1.20226443461741e+000	(1.57664499877376e+001dB,-7.39573097455676e-004°)
1.23026877081238e+000	(1.57664499877042e+001dB,-7.56799967903850e-004°)
1.25892541179417e+000	(1.57664499876692e+001dB,-7.74428103712250e-004°)
1.28824955169313e+000	(1.57664499876325e+001dB,-7.92466851551802e-004°)
1.31825673855641e+000	(1.57664499875942e+001dB,-8.10925775805374e-004°)
1.34896288259165e+000	(1.57664499875540e+001dB,-8.29814663638950e-004°)
1.38038426460288e+000	(1.57664499875119e+001dB,-8.49143530190844e-004°)
1.41253754462275e+000	(1.57664499874678e+001dB,-8.68922623881922e-004°)
1.44543977074593e+000	(1.57664499874217e+001dB,-8.89162431849462e-004°)
1.47910838816821e+000	(1.57664499873734e+001dB,-9.09873685507504e-004°)
1.51356124843621e+000	(1.57664499873228e+001dB,-9.31067366236919e-004°)
1.54881661891248e+000	(1.57664499872698e+001dB,-9.52754711207707e-004°)
1.58489319246111e+000	(1.57664499872144e+001dB,-9.74947219337210e-004°)
1.62181009735893e+000	(1.57664499871563e+001dB,-9.97656657386981e-004°)
1.65958690743756e+000	(1.57664499870955e+001dB,-1.02089506620161e-003°)
1.69824365246174e+000	(1.57664499870318e+001dB,-1.04467476709302e-003°)
1.73780082874937e+000	(1.57664499869651e+001dB,-1.06900836837341e-003°)
1.77827941003892e+000	(1.57664499868952e+001dB,-1.09390877204021e-003°)
1.81970085860998e+000	(1.57664499868221e+001dB,-1.11938918061697e-003°)
1.86208713666287e+000	(1.57664499867455e+001dB,-1.14546310415357e-003°)
1.90546071796325e+000	(1.57664499866654e+001dB,-1.17214436738937e-003°)
1.94984459975804e+000	(1.57664499865814e+001dB,-1.19944711708322e-003°)
1.99526231496888e+000	(1.57664499864935e+001dB,-1.22738582951445e-003°)
2.04173794466953e+000	(1.57664499864014e+001dB,-1.25597531815804e-003°)
2.08929613085404e+000	(1.57664499863050e+001dB,-1.28523074153930e-003°)
2.13796208950223e+000	(1.57664499862041e+001dB,-1.31516761127087e-003°)
2.18776162394955e+000	(1.57664499860984e+001dB,-1.34580180027730e-003°)
2.23872113856834e+000	(1.57664499859877e+001dB,-1.37714955121099e-003°)
2.29086765276777e+000	(1.57664499858718e+001dB,-1.40922748506440e-003°)
2.34422881531992e+000	(1.57664499857504e+001dB,-1.44205260998250e-003°)
2.39883291901949e+000	(1.57664499856234e+001dB,-1.47564233028100e-003°)
2.45470891568503e+000	(1.57664499854903e+001dB,-1.51001445567411e-003°)
2.51188643150958e+000	(1.57664499853510e+001dB,-1.54518721071760e-003°)
2.57039578276886e+000	(1.57664499852051e+001dB,-1.58117924447164e-003°)
2.63026799189538e+000	(1.57664499850523e+001dB,-1.61800964038884e-003°)
2.69153480392691e+000	(1.57664499848923e+001dB,-1.65569792643247e-003°)
2.75422870333816e+000	(1.57664499847248e+001dB,-1.69426408543054e-003°)
2.81838293126445e+000	(1.57664499845493e+001dB,-1.73372856567093e-003°)
2.88403150312660e+000	(1.57664499843657e+001dB,-1.77411229174325e-003°)
2.95120922666638e+000	(1.57664499841733e+001dB,-1.81543667563348e-003°)
3.01995172040201e+000	(1.57664499839719e+001dB,-1.85772362807677e-003°)
3.09029543251359e+000	(1.57664499837610e+001dB,-1.90099557017486e-003°)
3.16227766016837e+000	(1.57664499835402e+001dB,-1.94527544528406e-003°)
3.23593656929628e+000	(1.57664499833090e+001dB,-1.99058673118003e-003°)
3.31131121482591e+000	(1.57664499830668e+001dB,-2.03695345250607e-003°)
3.38844156139202e+000	(1.57664499828133e+001dB,-2.08440019351142e-003°)
3.46736850452531e+000	(1.57664499825478e+001dB,-2.13295211108583e-003°)
3.54813389233575e+000	(1.57664499822698e+001dB,-2.18263494809846e-003°)
3.63078054770101e+000	(1.57664499819786e+001dB,-2.23347504704679e-003°)
3.71535229097172e+000	(1.57664499816738e+001dB,-2.28549936402400e-003°)
3.80189396320560e+000	(1.57664499813546e+001dB,-2.33873548301109e-003°)
3.89045144994280e+000	(1.57664499810204e+001dB,-2.39321163050289e-003°)
3.98107170553496e+000	(1.57664499806704e+001dB,-2.44895669047321e-003°)
4.07380277804112e+000	(1.57664499803039e+001dB,-2.50600021969051e-003°)
4.16869383470335e+000	(1.57664499799201e+001dB,-2.56437246338854e-003°)
4.26579518801592e+000	(1.57664499795182e+001dB,-2.62410437130312e-003°)
4.36515832240165e+000	(1.57664499790975e+001dB,-2.68522761408186e-003°)
4.46683592150962e+000	(1.57664499786568e+001dB,-2.74777460007673e-003°)
4.57088189614874e+000	(1.57664499781954e+001dB,-2.81177849252700e-003°)
4.67735141287197e+000	(1.57664499777123e+001dB,-2.87727322714295e-003°)
4.78630092322637e+000	(1.57664499772064e+001dB,-2.94429353009922e-003°)
4.89778819368445e+000	(1.57664499766766e+001dB,-3.01287493644679e-003°)
5.01187233627271e+000	(1.57664499761219e+001dB,-3.08305380895435e-003°)
5.12861383991364e+000	(1.57664499755411e+001dB,-3.15486735738821e-003°)
5.24807460249771e+000	(1.57664499749329e+001dB,-3.22835365824147e-003°)
5.37031796370252e+000	(1.57664499742960e+001dB,-3.30355167492254e-003°)
5.49540873857623e+000	(1.57664499736291e+001dB,-3.38050127841425e-003°)
5.62341325190348e+000	(1.57664499729307e+001dB,-3.45924326841383e-003°)
5.75439937337156e+000	(1.57664499721995e+001dB,-3.53981939496552e-003°)
5.88843655355588e+000	(1.57664499714338e+001dB,-3.62227238059689e-003°)
6.02559586074356e+000	(1.57664499706320e+001dB,-3.70664594297104e-003°)
6.16595001861481e+000	(1.57664499697924e+001dB,-3.79298481806620e-003°)
6.30957344480192e+000	(1.57664499689132e+001dB,-3.88133478389505e-003°)
6.45654229034654e+000	(1.57664499679926e+001dB,-3.97174268477748e-003°)
6.60693448007594e+000	(1.57664499670286e+001dB,-4.06425645617735e-003°)
6.76082975391980e+000	(1.57664499660192e+001dB,-4.15892515011916e-003°)
6.91830970918935e+000	(1.57664499649622e+001dB,-4.25579896119523e-003°)
7.07945784384136e+000	(1.57664499638555e+001dB,-4.35492925318048e-003°)
7.24435960074988e+000	(1.57664499626965e+001dB,-4.45636858626545e-003°)
7.41310241300916e+000	(1.57664499614829e+001dB,-4.56017074492499e-003°)
7.58577575029182e+000	(1.57664499602122e+001dB,-4.66639076643489e-003°)
7.76247116628690e+000	(1.57664499588815e+001dB,-4.77508497005353e-003°)
7.94328234724279e+000	(1.57664499574882e+001dB,-4.88631098688345e-003°)
8.12830516164097e+000	(1.57664499560291e+001dB,-5.00012779042801e-003°)
8.31763771102669e+000	(1.57664499545013e+001dB,-5.11659572785897e-003°)
8.51138038202374e+000	(1.57664499529015e+001dB,-5.23577655201520e-003°)
8.70963589956078e+000	(1.57664499512263e+001dB,-5.35773345414292e-003°)
8.91250938133743e+000	(1.57664499494721e+001dB,-5.48253109740180e-003°)
9.12010839355907e+000	(1.57664499476353e+001dB,-5.61023565114939e-003°)
9.33254300796988e+000	(1.57664499457119e+001dB,-5.74091482602573e-003°)
9.54992586021433e+000	(1.57664499436979e+001dB,-5.87463790985356e-003°)
9.77237220955808e+000	(1.57664499415889e+001dB,-6.01147580437652e-003°)
9.99999999999997e+000	(1.57664499393806e+001dB,-6.15150106285146e-003°)
1.02329299228075e+001	(1.57664499370682e+001dB,-6.29478792851720e-003°)
1.04712854805090e+001	(1.57664499346468e+001dB,-6.44141237395972e-003°)
1.07151930523760e+001	(1.57664499321112e+001dB,-6.59145214139346e-003°)
1.09647819614318e+001	(1.57664499294562e+001dB,-6.74498678388110e-003°)
1.12201845430196e+001	(1.57664499266761e+001dB,-6.90209770751362e-003°)
1.14815362149688e+001	(1.57664499237649e+001dB,-7.06286821457298e-003°)
1.17489755493953e+001	(1.57664499207166e+001dB,-7.22738354770064e-003°)
1.20226443461741e+001	(1.57664499175245e+001dB,-7.39573093509311e-003°)
1.23026877081238e+001	(1.57664499141821e+001dB,-7.56799963675248e-003°)
1.25892541179416e+001	(1.57664499106821e+001dB,-7.74428099181216e-003°)
1.28824955169313e+001	(1.57664499070171e+001dB,-7.92466846696721e-003°)
1.31825673855640e+001	(1.57664499031795e+001dB,-8.10925770603069e-003°)
1.34896288259165e+001	(1.57664498991610e+001dB,-8.29814658064589e-003°)
1.38038426460288e+001	(1.57664498949531e+001dB,-8.49143524217803e-003°)
1.41253754462275e+001	(1.57664498905468e+001dB,-8.68922617481694e-003°)
1.44543977074592e+001	(1.57664498859330e+001dB,-8.89162424991488e-003°)
1.47910838816820e+001	(1.57664498811016e+001dB,-9.09873678159067e-003°)
1.51356124843620e+001	(1.57664498760426e+001dB,-9.31067358362941e-003°)
1.54881661891248e+001	(1.57664498707452e+001dB,-9.52754702770569e-003°)
1.58489319246111e+001	(1.57664498651980e+001dB,-9.74947210296649e-003°)
1.62181009735892e+001	(1.57664498593895e+001dB,-9.97656647699841e-003°)
1.65958690743755e+001	(1.57664498533072e+001dB,-1.02089505582166e-002°)
1.69824365246174e+001	(1.57664498469383e+001dB,-1.04467475597073e-002°)
1.73780082874937e+001	(1.57664498402692e+001dB,-1.06900835645566e-002°)
1.77827941003892e+001	(1.57664498332858e+001dB,-1.09390875927006e-002°)
1.81970085860998e+001	(1.57664498259733e+001dB,-1.11938916693353e-002°)
1.86208713666286e+001	(1.57664498183161e+001dB,-1.14546308949150e-002°)
1.90546071796324e+001	(1.57664498102981e+001dB,-1.17214435167867e-002°)
1.94984459975804e+001	(1.57664498019022e+001dB,-1.19944710024893e-002°)
1.99526231496887e+001	(1.57664497931107e+001dB,-1.22738581147615e-002°)
2.04173794466952e+001	(1.57664497839048e+001dB,-1.25597529882964e-002°)
2.08929613085403e+001	(1.57664497742650e+001dB,-1.28523072082854e-002°)
2.13796208950222e+001	(1.57664497641709e+001dB,-1.31516758907890e-002°)
2.18776162394954e+001	(1.57664497536011e+001dB,-1.34580177649816e-002°)
2.23872113856833e+001	(1.57664497425332e+001dB,-1.37714952573120e-002°)
2.29086765276776e+001	(1.57664497309436e+001dB,-1.40922745776231e-002°)
2.34422881531991e+001	(1.57664497188079e+001dB,-1.44205258072779e-002°)
2.39883291901948e+001	(1.57664497061002e+001dB,-1.47564229893402e-002°)
2.45470891568502e+001	(1.57664496927936e+001dB,-1.51001442208524e-002°)
2.51188643150957e+001	(1.57664496788599e+001dB,-1.54518717472645e-002°)
2.57039578276885e+001	(1.57664496642695e+001dB,-1.58117920590642e-002°)
2.63026799189537e+001	(1.57664496489915e+001dB,-1.61800959906548e-002°)
2.69153480392690e+001	(1.57664496329934e+001dB,-1.65569788215368e-002°)
2.75422870333815e+001	(1.57664496162415e+001dB,-1.69426403798498e-002°)
2.81838293126444e+001	(1.57664495987000e+001dB,-1.73372851483204e-002°)
2.88403150312659e+001	(1.57664495803317e+001dB,-1.77411223726843e-002°)
2.95120922666637e+001	(1.57664495610979e+001dB,-1.81543661726268e-002°)
3.01995172040200e+001	(1.57664495409575e+001dB,-1.85772356553131e-002°)
3.09029543251358e+001	(1.57664495198680e+001dB,-1.90099550315622e-002°)
3.16227766016837e+001	(1.57664494977846e+001dB,-1.94527537347225e-002°)
3.23593656929627e+001	(1.57664494746604e+001dB,-1.99058665423231e-002°)
3.31131121482590e+001	(1.57664494504464e+001dB,-2.03695337005511e-002°)
3.38844156139201e+001	(1.57664494250912e+001dB,-2.08440010516358e-002°)
3.46736850452530e+001	(1.57664493985411e+001dB,-2.13295201641943e-002°)
3.54813389233574e+001	(1.57664493707397e+001dB,-2.18263484666159e-002°)
3.63078054770100e+001	(1.57664493416281e+001dB,-2.23347493835519e-002°)
3.71535229097171e+001	(1.57664493111444e+001dB,-2.28549924755882e-002°)
3.80189396320559e+001	(1.57664492792241e+001dB,-2.33873535821647e-002°)
3.89045144994279e+001	(1.57664492457995e+001dB,-2.39321149678298e-002°)
3.98107170553495e+001	(1.57664492107996e+001dB,-2.44895654718979e-002°)
4.07380277804111e+001	(1.57664491741502e+001dB,-2.50600006615960e-002°)
4.16869383470333e+001	(1.57664491357736e+001dB,-2.56437229887719e-002°)
4.26579518801591e+001	(1.57664490955883e+001dB,-2.62410419502598e-002°)
4.36515832240164e+001	(1.57664490535092e+001dB,-2.68522742519760e-002°)
4.46683592150961e+001	(1.57664490094470e+001dB,-2.74777439768354e-002°)
4.57088189614873e+001	(1.57664489633081e+001dB,-2.81177827565881e-002°)
4.67735141287196e+001	(1.57664489149948e+001dB,-2.87727299476447e-002°)
4.78630092322636e+001	(1.57664488644046e+001dB,-2.94429328110120e-002°)
4.89778819368444e+001	(1.57664488114301e+001dB,-3.01287466964063e-002°)
5.01187233627270e+001	(1.57664487559591e+001dB,-3.08305352306642e-002°)
5.12861383991362e+001	(1.57664486978737e+001dB,-3.15486705105372e-002°)
5.24807460249770e+001	(1.57664486370509e+001dB,-3.22835332999816e-002°)
5.37031796370250e+001	(1.57664485733616e+001dB,-3.30355132320351e-002°)
5.49540873857622e+001	(1.57664485066707e+001dB,-3.38050090154039e-002°)
5.62341325190346e+001	(1.57664484368367e+001dB,-3.45924286458623e-002°)
5.75439937337154e+001	(1.57664483637116e+001dB,-3.53981896225652e-002°)
5.88843655355586e+001	(1.57664482871402e+001dB,-3.62227191694086e-002°)
6.02559586074355e+001	(1.57664482069601e+001dB,-3.70664544615465e-002°)
6.16595001861479e+001	(1.57664481230013e+001dB,-3.79298428571775e-002°)
6.30957344480190e+001	(1.57664480350855e+001dB,-3.88133421347359e-002°)
6.45654229034652e+001	(1.57664479430265e+001dB,-3.97174207355990e-002°)
6.60693448007593e+001	(1.57664478466288e+001dB,-4.06425580124598e-002°)
6.76082975391978e+001	(1.57664477456881e+001dB,-4.15892444834736e-002°)
6.91830970918933e+001	(1.57664476399901e+001dB,-4.25579820923334e-002°)
7.07945784384134e+001	(1.57664475293108e+001dB,-4.35492844743887e-002°)
7.24435960074986e+001	(1.57664474134153e+001dB,-4.45636772289788e-002°)
7.41310241300914e+001	(1.57664472920579e+001dB,-4.56016981980992e-002°)
7.58577575029180e+001	(1.57664471649810e+001dB,-4.66638977515611e-002°)
7.76247116628688e+001	(1.57664470319152e+001dB,-4.77508390787917e-002°)
7.94328234724277e+001	(1.57664468925782e+001dB,-4.88630984874328e-002°)
8.12830516164095e+001	(1.57664467466745e+001dB,-5.00012657088873e-002°)
8.31763771102667e+001	(1.57664465938945e+001dB,-5.11659442109924e-002°)
8.51138038202372e+001	(1.57664464339143e+001dB,-5.23577515179700e-002°)
8.70963589956076e+001	(1.57664462663944e+001dB,-5.35773195378203e-002°)
8.91250938133741e+001	(1.57664460909796e+001dB,-5.48252948973613e-002°)
9.12010839355905e+001	(1.57664459072977e+001dB,-5.61023392850470e-002°)
9.33254300796986e+001	(1.57664457149591e+001dB,-5.74091298017850e-002°)
9.54992586021431e+001	(1.57664455135560e+001dB,-5.87463593199292e-002°)
9.77237220955805e+001	(1.57664453026609e+001dB,-6.01147368506056e-002°)
9.99999999999995e+001	(1.57664450818268e+001dB,-6.15149879196350e-002°)
1.02329299228075e+002	(1.57664448505850e+001dB,-6.29478549521713e-002°)
1.04712854805089e+002	(1.57664446084452e+001dB,-6.44140976663174e-002°)
1.07151930523760e+002	(1.57664443548937e+001dB,-6.59144934759114e-002°)
1.09647819614318e+002	(1.57664440893927e+001dB,-6.74498379026820e-002°)
1.12201845430196e+002	(1.57664438113791e+001dB,-6.90209449979973e-002°)
1.14815362149688e+002	(1.57664435202630e+001dB,-7.06286477744590e-002°)
1.17489755493952e+002	(1.57664432154272e+001dB,-7.22737986475299e-002°)
1.20226443461741e+002	(1.57664428962248e+001dB,-7.39572698874369e-002°)
1.23026877081237e+002	(1.57664425619790e+001dB,-7.56799540816324e-002°)
1.25892541179416e+002	(1.57664422119807e+001dB,-7.74427646079716e-002°)
1.28824955169313e+002	(1.57664418454875e+001dB,-7.92466361189753e-002°)
1.31825673855640e+002	(1.57664414617220e+001dB,-8.10925250372997e-002°)
1.34896288259165e+002	(1.57664410598702e+001dB,-8.29814100628063e-002°)
1.38038426460288e+002	(1.57664406390799e+001dB,-8.49142926913814e-002°)
1.41253754462275e+002	(1.57664401984583e+001dB,-8.68921977458975e-002°)
1.44543977074592e+002	(1.57664397370708e+001dB,-8.89161739194823e-002°)
1.47910838816820e+002	(1.57664392539390e+001dB,-9.09872943314750e-002°)
1.51356124843620e+002	(1.57664387480379e+001dB,-9.31066570963113e-002°)
1.54881661891247e+002	(1.57664382182944e+001dB,-9.52753859056511e-002°)
1.58489319246110e+002	(1.57664376635851e+001dB,-9.74946306240866e-002°)
1.62181009735892e+002	(1.57664370827330e+001dB,-9.97655678986657e-002°)
1.65958690743755e+002	(1.57664364745065e+001dB,-1.02089401782687e-001°)
1.69824365246173e+002	(1.57664358376151e+001dB,-1.04467364373939e-001°)
1.73780082874936e+002	(1.57664351707081e+001dB,-1.06900716467838e-001°)
1.77827941003891e+002	(1.57664344723708e+001dB,-1.09390748225788e-001°)
1.81970085860997e+002	(1.57664337411221e+001dB,-1.11938779859046e-001°)
1.86208713666286e+002	(1.57664329754107e+001dB,-1.14546162328564e-001°)
1.90546071796323e+002	(1.57664321736127e+001dB,-1.17214278061097e-001°)
1.94984459975803e+002	(1.57664313340272e+001dB,-1.19944541681974e-001°)
1.99526231496887e+002	(1.57664304548735e+001dB,-1.22738400764946e-001°)
2.04173794466952e+002	(1.57664295342867e+001dB,-1.25597336599483e-001°)
2.08929613085403e+002	(1.57664285703142e+001dB,-1.28522864975901e-001°)
2.13796208950222e+002	(1.57664275609113e+001dB,-1.31516536988822e-001°)
2.18776162394954e+002	(1.57664265039370e+001dB,-1.34579939859287e-001°)
2.23872113856832e+002	(1.57664253971493e+001dB,-1.37714697776017e-001°)
2.29086765276776e+002	(1.57664242382006e+001dB,-1.40922472756259e-001°)
2.34422881531991e+002	(1.57664230246326e+001dB,-1.44204965526656e-001°)
2.39883291901947e+002	(1.57664217538714e+001dB,-1.47563916424642e-001°)
2.45470891568501e+002	(1.57664204232213e+001dB,-1.51001106320758e-001°)
2.51188643150956e+002	(1.57664190298602e+001dB,-1.54518357562488e-001°)
2.57039578276885e+002	(1.57664175708323e+001dB,-1.58117534940039e-001°)
2.63026799189536e+002	(1.57664160430432e+001dB,-1.61800546674563e-001°)
2.69153480392690e+002	(1.57664144432522e+001dB,-1.65569345429427e-001°)
2.75422870333815e+002	(1.57664127680659e+001dB,-1.69425929344925e-001°)
2.81838293126443e+002	(1.57664110139313e+001dB,-1.73372343097170e-001°)
2.88403150312659e+002	(1.57664091771276e+001dB,-1.77410678981531e-001°)
2.95120922666637e+002	(1.57664072537589e+001dB,-1.81543078021297e-001°)
3.01995172040200e+002	(1.57664052397454e+001dB,-1.85771731102173e-001°)
3.09029543251357e+002	(1.57664031308155e+001dB,-1.90098880133031e-001°)
3.16227766016836e+002	(1.57664009224958e+001dB,-1.94526819233867e-001°)
3.23593656929626e+002	(1.57663986101025e+001dB,-1.99057895951154e-001°)
3.31131121482589e+002	(1.57663961887307e+001dB,-2.03694512501604e-001°)
3.38844156139200e+002	(1.57663936532447e+001dB,-2.08439127044819e-001°)
3.46736850452529e+002	(1.57663909982665e+001dB,-2.13294254985478e-001°)
3.54813389233573e+002	(1.57663882181647e+001dB,-2.18262470305879e-001°)
3.63078054770099e+002	(1.57663853070426e+001dB,-2.23346406929333e-001°)
3.71535229097170e+002	(1.57663822587258e+001dB,-2.28548760115430e-001°)
3.80189396320558e+002	(1.57663790667484e+001dB,-2.33872287887463e-001°)
3.89045144994278e+002	(1.57663757243403e+001dB,-2.39319812493357e-001°)
3.98107170553494e+002	(1.57663722244121e+001dB,-2.44894221900198e-001°)
4.07380277804110e+002	(1.57663685595405e+001dB,-2.50598471323758e-001°)
4.16869383470332e+002	(1.57663647219520e+001dB,-2.56435584793367e-001°)
4.26579518801589e+002	(1.57663607035072e+001dB,-2.62408656753232e-001°)
4.36515832240163e+002	(1.57663564956830e+001dB,-2.68520853700893e-001°)
4.46683592150960e+002	(1.57663520895544e+001dB,-2.74775415863714e-001°)
4.57088189614872e+002	(1.57663474757762e+001dB,-2.81175658914386e-001°)
4.67735141287195e+002	(1.57663426445626e+001dB,-2.87724975726078e-001°)
4.78630092322635e+002	(1.57663375856667e+001dB,-2.94426838168490e-001°)
4.89778819368443e+002	(1.57663322883587e+001dB,-3.01284798945511e-001°)
5.01187233627268e+002	(1.57663267414032e+001dB,-3.08302493475475e-001°)
5.12861383991361e+002	(1.57663209330352e+001dB,-3.15483641815066e-001°)
5.24807460249769e+002	(1.57663148509357e+001dB,-3.22832050627910e-001°)
