time	V(a)	I(I1)
0.000000000000000e+000	0.000000e+000	0.000000e+000
9.999999960041972e-013	-1.998785e-005	2.000000e-004
1.999999992008394e-012	-3.997119e-005	4.000000e-004
3.999999984016789e-012	-7.991899e-005	8.000000e-004
7.999999968033578e-012	-1.597358e-004	1.600000e-003
1.594808285234169e-011	-3.180144e-004	3.189617e-003
3.184424862095793e-011	-6.335201e-004	6.368850e-003
5.331846259245957e-011	-1.057711e-003	1.066369e-002
7.866858761880525e-011	-1.555568e-003	1.573372e-002
1.019038493153347e-010	-2.008980e-003	2.038077e-002
1.266065860892139e-010	-2.487619e-003	2.532132e-002
1.584691002448410e-010	-3.100057e-003	3.169382e-002
1.975036851937965e-010	-3.843027e-003	3.950074e-002
2.474512947560081e-010	-4.782101e-003	4.949026e-002
3.089958883378917e-010	-5.921541e-003	6.179918e-002
3.870898667651583e-010	-7.339765e-003	7.741797e-002
4.841901034388706e-010	-9.061046e-003	9.683802e-002
6.072082737149855e-010	-1.117659e-002	1.214417e-001
7.614053221451004e-010	-1.372902e-002	1.522811e-001
9.572057992263410e-010	-1.681787e-002	1.914412e-001
1.204845906737060e-009	-2.049406e-002	2.409692e-001
1.521435027077736e-009	-2.484495e-002	3.042870e-001
1.926829429357839e-009	-2.989529e-002	3.853659e-001
2.452005168626604e-009	-3.566571e-002	4.904010e-001
3.137829887942882e-009	-4.207845e-002	6.275660e-001
4.048343913682881e-009	-4.908754e-002	8.096688e-001
5.000000000000000e-009	-5.527715e-002	1.000000e+000
5.285496825895136e-009	-4.596802e-002	9.429007e-001
5.666159260421984e-009	-3.478519e-002	8.667681e-001
6.427484129475679e-009	-1.592676e-002	7.145032e-001
7.761377553083990e-009	1.038492e-002	4.477245e-001
8.696671140697320e-009	2.416117e-002	2.606658e-001
1.000000000000000e-008	3.881304e-002	0.000000e+000
1.039099865779081e-008	3.467796e-002	0.000000e+000
1.091233020151188e-008	2.986321e-002	0.000000e+000
1.195499328895402e-008	2.194467e-002	0.000000e+000
1.328197157726067e-008	1.421308e-002	0.000000e+000
1.456389940235790e-008	8.796683e-003	0.000000e+000
1.576381380268550e-008	5.174685e-003	0.000000e+000
1.688895186875448e-008	2.697931e-003	0.000000e+000
1.787107067396834e-008	1.067325e-003	0.000000e+000
1.860745927833338e-008	1.238468e-004	0.000000e+000
1.951235567004914e-008	-7.896026e-004	0.000000e+000
2.032875219711707e-008	-1.428758e-003	0.000000e+000
2.170631933289234e-008	-2.223155e-003	0.000000e+000
2.310380935417041e-008	-2.779355e-003	0.000000e+000
2.506274403508259e-008	-3.259582e-003	0.000000e+000
2.704781740234270e-008	-3.526846e-003	0.000000e+000
2.972749272890090e-008	-3.678877e-003	0.000000e+000
3.260799826625462e-008	-3.709189e-003	0.000000e+000
3.656623216700311e-008	-3.647195e-003	0.000000e+000
4.122868029931420e-008	-3.522377e-003	0.000000e+000
5.767984128353649e-008	-3.041269e-003	0.000000e+000
7.536317130436953e-008	-2.601897e-003	0.000000e+000
1.107298313460356e-007	-1.901437e-003	0.000000e+000
1.524568647391603e-007	-1.289765e-003	0.000000e+000
1.926088906304810e-007	-8.834155e-004	0.000000e+000
2.354074856248487e-007	-5.901728e-004	0.000000e+000
2.754615712838009e-007	-4.038614e-004	0.000000e+000
3.173394771372922e-007	-2.722050e-004	0.000000e+000
3.576171423355781e-007	-1.860532e-004	0.000000e+000
3.993522459101640e-007	-1.255617e-004	0.000000e+000
4.398877467057728e-007	-8.561749e-005	0.000000e+000
4.814347827327875e-007	-5.787126e-005	0.000000e+000
5.221018517975700e-007	-3.941702e-005	0.000000e+000
5.635185818536342e-007	-2.667372e-005	0.000000e+000
6.042926741485644e-007	-1.815119e-005	0.000000e+000
6.456211994005324e-007	-1.229234e-005	0.000000e+000
6.864694300865658e-007	-8.359450e-006	0.000000e+000
7.277339965554080e-007	-5.664320e-006	0.000000e+000
7.686346234122410e-007	-3.850302e-006	0.000000e+000
8.098543651839771e-007	-2.609956e-006	0.000000e+000
8.507920964556453e-007	-1.773541e-006	0.000000e+000
8.919802174244857e-007	-1.202554e-006	0.000000e+000
9.329628936187995e-007	-8.168374e-007	0.000000e+000
9.741192262025637e-007	-5.540054e-007	0.000000e+000
1.015126302855117e-006	-3.762305e-007	0.000000e+000
1.056259687509804e-006	-2.552230e-007	0.000000e+000
1.097285809756378e-006	-1.732960e-007	0.000000e+000
1.138403557902121e-006	-1.175744e-007	0.000000e+000
1.179443039105208e-006	-7.982362e-008	0.000000e+000
1.220549467111253e-006	-5.416245e-008	0.000000e+000
1.261598402519311e-006	-3.676896e-008	0.000000e+000
1.302696842430379e-006	-2.495044e-008	0.000000e+000
1.343752504577048e-006	-1.693698e-008	0.000000e+000
1.384845283500171e-006	-1.149355e-008	0.000000e+000
1.425905701791866e-006	-7.801786e-009	0.000000e+000
1.466994477249162e-006	-5.312677e-009	0.000000e+000
1.512719051146090e-006	-3.485300e-009	0.000000e+000
1.565347804483575e-006	-2.150162e-009	0.000000e+000
1.626515875505918e-006	-1.227266e-009	0.000000e+000
1.698152885513670e-006	-6.374022e-010	0.000000e+000
1.784326876809119e-006	-2.887699e-010	0.000000e+000
2.084326876809118e-006	-1.469883e-011	0.000000e+000
9.999999999999999e-006	0.000000e+000	0.000000e+000
1.000000506063681e-005	-1.010012e-004	1.012127e-003
1.000001518191044e-005	-3.027430e-004	3.036382e-003
1.000002419677822e-005	-4.820390e-004	4.839356e-003
1.000003405980853e-005	-6.775600e-004	6.811962e-003
1.000005378586914e-005	-1.066935e-003	1.075717e-002
1.000007849808742e-005	-1.552164e-003	1.569962e-002
1.000010242748224e-005	-2.019086e-003	2.048550e-002
1.000012693232168e-005	-2.493842e-003	2.538646e-002
1.000015933934781e-005	-3.116644e-003	3.186787e-002
1.000019822574952e-005	-3.856633e-003	3.964515e-002
1.000024877125093e-005	-4.806679e-003	4.975425e-002
1.000031029967624e-005	-5.945410e-003	6.205994e-002
1.000038910765526e-005	-7.375943e-003	7.782153e-002
1.000048639012942e-005	-9.099457e-003	9.727803e-002
1.000061033147239e-005	-1.122931e-002	1.220663e-001
1.000076502594493e-005	-1.378761e-002	1.530052e-001
1.000096212234464e-005	-1.689326e-002	1.924245e-001
1.000121078785270e-005	-2.057919e-002	2.421576e-001
1.000152934920794e-005	-2.494892e-002	3.058698e-001
1.000193671550474e-005	-3.001161e-002	3.873431e-001
1.000246516393828e-005	-3.580004e-002	4.930328e-001
1.000315483439836e-005	-4.222313e-002	6.309669e-001
1.000407141276589e-005	-4.925340e-002	8.142825e-001
1.000500000000000e-005	-5.527594e-002	1.000000e+000
1.000527857617023e-005	-4.617974e-002	9.442847e-001
1.000565001106388e-005	-3.522616e-002	8.699978e-001
1.000639288085117e-005	-1.671870e-002	7.214238e-001
1.000773167619208e-005	9.828667e-003	4.536647e-001
1.000870781121037e-005	2.426788e-002	2.584378e-001
1.001000000000000e-005	3.881650e-002	1.920686e-014
1.001038765663689e-005	3.471378e-002	0.000000e+000
1.001090453215274e-005	2.993149e-002	0.000000e+000
1.001193828318445e-005	2.205740e-002	0.000000e+000
1.001326276133370e-005	1.430964e-002	0.000000e+000
1.001454630196086e-005	8.860427e-003	0.000000e+000
1.001574733930197e-005	5.217635e-003	0.000000e+000
1.001687378787384e-005	2.727163e-003	0.000000e+000
1.001785859419651e-005	1.085934e-003	0.000000e+000
1.001859953540185e-005	1.288634e-004	0.000000e+000
1.001941152105986e-005	-7.025217e-004	0.000000e+000
1.002022543563153e-005	-1.355084e-003	0.000000e+000
1.002153459969671e-005	-2.138494e-003	0.000000e+000
1.002293963351943e-005	-2.723935e-003	0.000000e+000
1.002482285520296e-005	-3.214531e-003	0.000000e+000
1.002680633643214e-005	-3.502746e-003	0.000000e+000
1.002938870693135e-005	-3.668137e-003	0.000000e+000
1.003224600309166e-005	-3.710061e-003	0.000000e+000
1.003604906637973e-005	-3.658801e-003	0.000000e+000
1.004061609813015e-005	-3.540154e-003	0.000000e+000
1.005632730036185e-005	-3.078563e-003	0.000000e+000
1.007253923263122e-005	-2.666354e-003	0.000000e+000
1.010496309716995e-005	-2.000864e-003	0.000000e+000
1.014575973824666e-005	-1.373315e-003	0.000000e+000
1.018620820433883e-005	-9.393009e-004	0.000000e+000
1.022944047800158e-005	-6.247577e-004	0.000000e+000
1.026948126076555e-005	-4.273663e-004	0.000000e+000
1.031132454293635e-005	-2.881286e-004	0.000000e+000
1.035153028283760e-005	-1.970822e-004	0.000000e+000
1.039330443686781e-005	-1.329650e-004	0.000000e+000
1.043381974890992e-005	-9.068063e-005	0.000000e+000
1.047539424594890e-005	-6.127802e-005	0.000000e+000
1.051603451260871e-005	-4.174718e-005	0.000000e+000
1.055747071141628e-005	-2.824581e-005	0.000000e+000
1.059822359425209e-005	-1.922462e-005	0.000000e+000
1.063956958636055e-005	-1.301730e-005	0.000000e+000
1.068039922414282e-005	-8.853916e-006	0.000000e+000
1.072167862388910e-005	-5.998586e-006	0.000000e+000
1.076256229121831e-005	-4.078136e-006	0.000000e+000
1.080379534092281e-005	-2.764072e-006	0.000000e+000
1.084471729383083e-005	-1.878533e-006	0.000000e+000
1.088591769776341e-005	-1.273611e-006	0.000000e+000
1.092689061030814e-005	-8.651757e-007	0.000000e+000
1.096805587419744e-005	-5.867443e-007	0.000000e+000
1.100905534036076e-005	-3.984900e-007	0.000000e+000
1.105019518247086e-005	-2.703080e-007	0.000000e+000
1.109121569738559e-005	-1.835477e-007	0.000000e+000
1.113233833677907e-005	-1.245245e-007	0.000000e+000
1.117337358052393e-005	-8.454526e-008	0.000000e+000
1.121448373116597e-005	-5.736434e-008	0.000000e+000
1.125552938885219e-005	-3.894372e-008	0.000000e+000
1.129663073890742e-005	-2.642551e-008	0.000000e+000
1.133768380566475e-005	-1.793870e-008	0.000000e+000
1.137877892325689e-005	-1.217307e-008	0.000000e+000
1.141983722287684e-005	-8.263198e-009	0.000000e+000
1.146092793746088e-005	-5.621512e-009	0.000000e+000
1.150535560200158e-005	-3.729463e-009	0.000000e+000
1.155723290492012e-005	-2.317144e-009	0.000000e+000
1.161666307805459e-005	-1.343249e-009	0.000000e+000
1.168695324630178e-005	-7.063430e-010	0.000000e+000
1.177021158937928e-005	-3.293951e-010	0.000000e+000
1.207021158937928e-005	-1.693124e-011	0.000000e+000
1.357021158937930e-005	1.529689e-018	0.000000e+000
2.000000000000000e-005	0.000000e+000	0.000000e+000
2.000001006900673e-005	-2.005979e-004	2.013801e-003
2.000003020702019e-005	-6.007905e-004	6.041404e-003
2.000004719551463e-005	-9.370489e-004	9.439103e-003
2.000006251379967e-005	-1.238764e-003	1.250276e-002
2.000008271722926e-005	-1.634620e-003	1.654345e-002
2.000010782759675e-005	-2.123768e-003	2.156552e-002
2.000013334051591e-005	-2.617218e-003	2.666810e-002
2.000016846352982e-005	-3.290774e-003	3.369271e-002
2.000020906225327e-005	-4.061232e-003	4.181245e-002
2.000026314333406e-005	-5.074201e-003	5.262867e-002
2.000032769196245e-005	-6.263607e-003	6.553839e-002
2.000041165863893e-005	-7.779401e-003	8.233172e-002
2.000051413314471e-005	-9.582365e-003	1.028266e-001
2.000064593928600e-005	-1.182769e-002	1.291879e-001
2.000080940784666e-005	-1.450153e-002	1.618816e-001
2.000101898009071e-005	-1.775819e-002	2.037960e-001
2.000128257585892e-005	-2.159726e-002	2.565152e-001
2.000162181477369e-005	-2.614760e-002	3.243630e-001
2.000205535092620e-005	-3.138373e-002	4.110702e-001
2.000262015971015e-005	-3.734765e-002	5.240319e-001
2.000335859107456e-005	-4.402362e-002	6.717182e-001
2.000401321865368e-005	-4.893865e-002	8.026437e-001
2.000500000000000e-005	-5.526943e-002	1.000000e+000
2.000529603440390e-005	-4.563794e-002	9.407931e-001
2.000569074694243e-005	-3.411043e-002	8.618506e-001
2.000648017201948e-005	-1.472829e-002	7.039656e-001
2.000780716760543e-005	1.123639e-002	4.385665e-001
2.000867997570456e-005	2.400803e-002	2.640049e-001
2.001000000000000e-005	3.881167e-002	0.000000e+000
2.001039600728863e-005	3.462780e-002	0.000000e+000
2.001092401700681e-005	2.976422e-002	0.000000e+000
2.001198003644317e-005	2.177892e-002	0.000000e+000
2.001331071870694e-005	1.407106e-002	0.000000e+000
2.001459022979929e-005	8.702989e-003	0.000000e+000
2.001578847650125e-005	5.111545e-003	0.000000e+000
2.001691165896332e-005	2.654962e-003	0.000000e+000
2.001788976020593e-005	1.040003e-003	0.000000e+000
2.001861933101924e-005	1.093368e-004	0.000000e+000
2.001951888064704e-005	-7.954733e-004	0.000000e+000
2.002034175394297e-005	-1.437677e-003	0.000000e+000
2.002171968025586e-005	-2.229527e-003	0.000000e+000
2.002312316230614e-005	-2.785566e-003	0.000000e+000
2.002508119120469e-005	-3.262923e-003	0.000000e+000
2.002707304813453e-005	-3.529132e-003	0.000000e+000
2.002975340680481e-005	-3.679604e-003	0.000000e+000
2.003264376973655e-005	-3.708974e-003	0.000000e+000
2.003660607504356e-005	-3.646257e-003	0.000000e+000
2.004128709838596e-005	-3.520632e-003	0.000000e+000
2.005780694838022e-005	-3.037764e-003	0.000000e+000
2.007558610320968e-005	-2.596804e-003	0.000000e+000
2.011114441286861e-005	-1.894436e-003	0.000000e+000
2.015293102079665e-005	-1.284033e-003	0.000000e+000
2.019306462556483e-005	-8.795648e-004	0.000000e+000
2.023583463971719e-005	-5.877696e-004	0.000000e+000
2.027588992588537e-005	-4.022256e-004	0.000000e+000
2.031776968960794e-005	-2.710984e-004	0.000000e+000
2.035805219365409e-005	-1.852878e-004	0.000000e+000
2.039978459211038e-005	-1.250477e-004	0.000000e+000
2.044032143450211e-005	-8.526610e-005	0.000000e+000
2.048186663494335e-005	-5.763471e-005	0.000000e+000
2.052253536648854e-005	-3.925534e-005	0.000000e+000
2.056395086966400e-005	-2.656459e-005	0.000000e+000
2.060472618321820e-005	-1.807673e-005	0.000000e+000
2.064605367780431e-005	-1.224203e-005	0.000000e+000
2.068690290041039e-005	-8.325162e-006	0.000000e+000
2.072816665617815e-005	-5.641126e-006	0.000000e+000
2.076906812347928e-005	-3.834507e-006	0.000000e+000
2.081028719075923e-005	-2.599265e-006	0.000000e+000
2.085122565029735e-005	-1.766265e-006	0.000000e+000
2.089241319206057e-005	-1.197626e-006	0.000000e+000
2.093339633514639e-005	-8.134869e-007	0.000000e+000
2.097455224898277e-005	-5.517351e-007	0.000000e+000
2.101555968131304e-005	-3.746875e-007	0.000000e+000
2.105669276438779e-005	-2.541769e-007	0.000000e+000
2.109771914653287e-005	-1.725854e-007	0.000000e+000
2.113883666964004e-005	-1.170925e-007	0.000000e+000
2.117987634453720e-005	-7.949630e-008	0.000000e+000
2.122098260386901e-005	-5.394043e-008	0.000000e+000
2.126203168637877e-005	-3.661819e-008	0.000000e+000
2.130312999704801e-005	-2.484816e-008	0.000000e+000
2.134418577315853e-005	-1.686753e-008	0.000000e+000
2.138527845066311e-005	-1.144643e-008	0.000000e+000
2.142633895964622e-005	-7.769798e-009	0.000000e+000
2.146742765323256e-005	-5.291256e-009	0.000000e+000
2.151324633855324e-005	-3.468429e-009	0.000000e+000
2.156592942016613e-005	-2.138657e-009	0.000000e+000
2.162722382121246e-005	-1.219325e-009	0.000000e+000
2.169895860360207e-005	-6.327071e-010	0.000000e+000
2.178534583065973e-005	-2.860353e-010	0.000000e+000
2.208534583065973e-005	-1.454904e-011	0.000000e+000
2.999573367556442e-005	-4.489949e-025	0.000000e+000
3.000000000000000e-005	-1.065732e-025	0.000000e+000
