time	V(a)	I(I1)
0.000000000000000e+000	0.000000e+000	0.000000e+000
9.999999960041972e-013	-1.998786e-005	2.000000e-004
1.999999992008394e-012	-3.997122e-005	4.000000e-004
3.999999984016789e-012	-7.991908e-005	8.000000e-004
7.999999968033578e-012	-1.597361e-004	1.600000e-003
1.594807115157767e-011	-3.180152e-004	3.189614e-003
3.184421351866586e-011	-6.335229e-004	6.368843e-003
5.332277851779125e-011	-1.057805e-003	1.066456e-002
7.868325665785403e-011	-1.555874e-003	1.573665e-002
1.019259931768289e-010	-2.009441e-003	2.038520e-002
1.266385345091494e-010	-2.488283e-003	2.532771e-002
1.585060970341359e-010	-3.100839e-003	3.170122e-002
1.975518512920638e-010	-3.844052e-003	3.951037e-002
2.475085130147781e-010	-4.783346e-003	4.950170e-002
3.090690416517682e-010	-5.923155e-003	6.181381e-002
3.871780099610692e-010	-7.341767e-003	7.743561e-002
4.843009365654207e-010	-9.063628e-003	9.686019e-002
6.073423483543097e-010	-1.117984e-002	1.214685e-001
7.615714064784515e-010	-1.373322e-002	1.523143e-001
9.574057926477102e-010	-1.682324e-002	1.914812e-001
1.205089029204894e-009	-2.050102e-002	2.410178e-001
1.521722705024585e-009	-2.485396e-002	3.043445e-001
1.927167482148902e-009	-2.990706e-002	3.854335e-001
2.452386282215140e-009	-3.568107e-002	4.904773e-001
3.138239773910547e-009	-4.209856e-002	6.276479e-001
4.048731444646342e-009	-4.911383e-002	8.097463e-001
5.000000000000000e-009	-5.530776e-002	1.000000e+000
5.285380566606098e-009	-4.600356e-002	9.429239e-001
5.665887988747561e-009	-3.482499e-002	8.668224e-001
6.426902833030488e-009	-1.597013e-002	7.146195e-001
7.761134736401999e-009	1.036116e-002	4.477730e-001
8.696058182058374e-009	2.414305e-002	2.607884e-001
1.000000000000000e-008	3.881766e-002	0.000000e+000
1.039118254538249e-008	3.468459e-002	0.000000e+000
1.091275927255914e-008	2.987179e-002	0.000000e+000
1.195591272691244e-008	2.195576e-002	0.000000e+000
1.328419052399592e-008	1.422213e-002	0.000000e+000
1.456768332617068e-008	8.802678e-003	0.000000e+000
1.576903925182468e-008	5.178731e-003	0.000000e+000
1.689556023162756e-008	2.700682e-003	0.000000e+000
1.787902643400282e-008	1.069092e-003	0.000000e+000
1.861666965354055e-008	1.248078e-004	0.000000e+000
1.952291312032210e-008	-7.891743e-004	0.000000e+000
2.033977786162526e-008	-1.428096e-003	0.000000e+000
2.171883026288854e-008	-2.222611e-003	0.000000e+000
2.311744853759596e-008	-2.778770e-003	0.000000e+000
2.507857021608204e-008	-3.259121e-003	0.000000e+000
2.706533371105953e-008	-3.526387e-003	0.000000e+000
2.974782574550133e-008	-3.678433e-003	0.000000e+000
3.263071069136715e-008	-3.708716e-003	0.000000e+000
3.659276724259192e-008	-3.646651e-003	0.000000e+000
4.125874910105564e-008	-3.521757e-003	0.000000e+000
5.772104650974440e-008	-3.040424e-003	0.000000e+000
7.541324291787387e-008	-2.600965e-003	0.000000e+000
1.107976357341328e-007	-1.900427e-003	0.000000e+000
1.525284961735607e-007	-1.288988e-003	0.000000e+000
1.926770969030359e-007	-8.828907e-004	0.000000e+000
2.354711151841938e-007	-5.898393e-004	0.000000e+000
2.755237945298053e-007	-4.036339e-004	0.000000e+000
3.174001946405476e-007	-2.720513e-004	0.000000e+000
3.576767415303238e-007	-1.859473e-004	0.000000e+000
3.994099121919043e-007	-1.254904e-004	0.000000e+000
4.399439349336703e-007	-8.556884e-005	0.000000e+000
4.814891469232776e-007	-5.783847e-005	0.000000e+000
5.221547675246936e-007	-3.939463e-005	0.000000e+000
5.635697382790795e-007	-2.665859e-005	0.000000e+000
6.043423469322202e-007	-1.814087e-005	0.000000e+000
6.456691280608471e-007	-1.228537e-005	0.000000e+000
6.865158703407073e-007	-8.354697e-006	0.000000e+000
7.277787028272484e-007	-5.661105e-006	0.000000e+000
7.686778510865535e-007	-3.848112e-006	0.000000e+000
8.098958549936900e-007	-2.608474e-006	0.000000e+000
8.508321270433262e-007	-1.772532e-006	0.000000e+000
8.920184976873799e-007	-1.201871e-006	0.000000e+000
9.329996414982568e-007	-8.163725e-007	0.000000e+000
9.741542557637028e-007	-5.536905e-007	0.000000e+000
1.015159783830480e-006	-3.760164e-007	0.000000e+000
1.056291474081229e-006	-2.550779e-007	0.000000e+000
1.097316029370550e-006	-1.731974e-007	0.000000e+000
1.138432096098990e-006	-1.175076e-007	0.000000e+000
1.179469998964143e-006	-7.977821e-008	0.000000e+000
1.220574754851872e-006	-5.413165e-008	0.000000e+000
1.261622104945431e-006	-3.674804e-008	0.000000e+000
1.302718878168098e-006	-2.493625e-008	0.000000e+000
1.343772950951557e-006	-1.692735e-008	0.000000e+000
1.384864066013182e-006	-1.148701e-008	0.000000e+000
1.425922893158560e-006	-7.797349e-009	0.000000e+000
1.467010005674213e-006	-5.309710e-009	0.000000e+000
1.512746724270143e-006	-3.482933e-009	0.000000e+000
1.565381398495630e-006	-2.148540e-009	0.000000e+000
1.626565782250913e-006	-1.226135e-009	0.000000e+000
1.698214373115152e-006	-6.367302e-010	0.000000e+000
1.784416551592353e-006	-2.883762e-010	0.000000e+000
2.084416551592353e-006	-1.467539e-011	0.000000e+000
9.999999999999999e-006	0.000000e+000	0.000000e+000
1.000000661215185e-005	-1.318935e-004	1.322430e-003
1.000001983645554e-005	-3.952666e-004	3.967291e-003
1.000002990275210e-005	-5.952311e-004	5.980550e-003
1.000004028538187e-005	-8.007237e-004	8.057076e-003
1.000006105064141e-005	-1.209905e-003	1.221013e-002
1.000008511134218e-005	-1.681481e-003	1.702227e-002
1.000010964473173e-005	-2.159223e-003	2.192895e-002
1.000013616066654e-005	-2.671767e-003	2.723213e-002
1.000017078184445e-005	-3.335252e-003	3.415637e-002
1.000021274890855e-005	-4.131053e-003	4.254978e-002
1.000026678907857e-005	-5.142304e-003	5.335782e-002
1.000033304629574e-005	-6.361779e-003	6.660926e-002
1.000041749316528e-005	-7.884064e-003	8.349863e-002
1.000052222299735e-005	-9.723419e-003	1.044446e-001
1.000065531454605e-005	-1.198559e-002	1.310629e-001
1.000082197745068e-005	-1.470405e-002	1.643955e-001
1.000103414613134e-005	-1.798944e-002	2.068292e-001
1.000130258507400e-005	-2.188160e-002	2.605170e-001
1.000164669648100e-005	-2.647117e-002	3.293393e-001
1.000208812735496e-005	-3.176409e-002	4.176255e-001
1.000266211375771e-005	-3.776881e-002	5.324228e-001
1.000341463016554e-005	-4.452451e-002	6.829261e-001
1.000399476128204e-005	-4.886099e-002	7.989523e-001
1.000500000000000e-005	-5.530047e-002	1.000000e+000
1.000530157161539e-005	-4.550122e-002	9.396857e-001
1.000570366710257e-005	-3.379424e-002	8.592666e-001
1.000650785807694e-005	-1.413803e-002	6.984284e-001
1.000783176427414e-005	1.166756e-002	4.336472e-001
1.000867064330086e-005	2.390979e-002	2.658713e-001
1.001000000000000e-005	3.881504e-002	1.920686e-014
1.001039880700974e-005	3.460785e-002	0.000000e+000
1.001093054968940e-005	2.972094e-002	0.000000e+000
1.001199403504870e-005	2.170372e-002	0.000000e+000
1.001332793173022e-005	1.400637e-002	0.000000e+000
1.001460773977905e-005	8.660346e-003	0.000000e+000
1.001580655448125e-005	5.082815e-003	0.000000e+000
1.001693008941137e-005	2.635422e-003	0.000000e+000
1.001790742474926e-005	1.027614e-003	0.000000e+000
1.001863466049010e-005	1.028161e-004	0.000000e+000
1.001953274027269e-005	-7.980288e-004	0.000000e+000
1.002035944665648e-005	-1.441575e-003	0.000000e+000
1.002173901976977e-005	-2.232222e-003	0.000000e+000
1.002314674464949e-005	-2.788145e-003	0.000000e+000
1.002510646065078e-005	-3.264146e-003	0.000000e+000
1.002710352929297e-005	-3.529819e-003	0.000000e+000
1.002978702142834e-005	-3.679506e-003	0.000000e+000
1.003268487524725e-005	-3.708365e-003	0.000000e+000
1.003665305585783e-005	-3.645209e-003	0.000000e+000
1.004134722975558e-005	-3.519093e-003	0.000000e+000
1.005791365492137e-005	-3.035097e-003	0.000000e+000
1.007575098796940e-005	-2.593241e-003	0.000000e+000
1.011142565406544e-005	-1.889826e-003	0.000000e+000
1.015324656282981e-005	-1.280313e-003	0.000000e+000
1.019336724120028e-005	-8.770635e-004	0.000000e+000
1.023611798559241e-005	-5.862021e-004	0.000000e+000
1.027617251726895e-005	-4.011579e-004	0.000000e+000
1.031805171697755e-005	-2.703764e-004	0.000000e+000
1.035833560120136e-005	-1.847887e-004	0.000000e+000
1.040006466264078e-005	-1.247125e-004	0.000000e+000
1.044060072839602e-005	-8.503698e-005	0.000000e+000
1.048214315217303e-005	-5.748043e-005	0.000000e+000
1.052281129949144e-005	-3.914991e-005	0.000000e+000
1.056422440484239e-005	-2.649342e-005	0.000000e+000
1.060499887043367e-005	-1.802818e-005	0.000000e+000
1.064632408465876e-005	-1.220922e-005	0.000000e+000
1.068717233544698e-005	-8.302799e-006	0.000000e+000
1.072843393512296e-005	-5.625999e-006	0.000000e+000
1.076933436149140e-005	-3.824206e-006	0.000000e+000
1.081055133966373e-005	-2.592293e-006	0.000000e+000
1.085148871908489e-005	-1.761518e-006	0.000000e+000
1.089267420898461e-005	-1.194412e-006	0.000000e+000
1.093365606277951e-005	-8.113013e-007	0.000000e+000
1.097481004030290e-005	-5.502541e-007	0.000000e+000
1.101581610920714e-005	-3.736810e-007	0.000000e+000
1.105694734089322e-005	-2.534946e-007	0.000000e+000
1.109797229135557e-005	-1.721218e-007	0.000000e+000
1.113908801593601e-005	-1.167782e-007	0.000000e+000
1.118012621327412e-005	-7.928278e-008	0.000000e+000
1.122123071275238e-005	-5.379561e-008	0.000000e+000
1.126227828643596e-005	-3.651985e-008	0.000000e+000
1.130337486324608e-005	-2.478145e-008	0.000000e+000
1.134442910919185e-005	-1.682223e-008	0.000000e+000
1.138552007018894e-005	-1.141570e-008	0.000000e+000
1.142657903506660e-005	-7.748930e-009	0.000000e+000
1.146766602328525e-005	-5.277286e-009	0.000000e+000
1.151354553492893e-005	-3.457403e-009	0.000000e+000
1.156626261424485e-005	-2.131131e-009	0.000000e+000
1.162763869318441e-005	-1.214123e-009	0.000000e+000
1.169943562187015e-005	-6.296305e-010	0.000000e+000
1.178596147355137e-005	-2.842437e-010	0.000000e+000
1.208596147355137e-005	-1.444910e-011	0.000000e+000
1.368596147355138e-005	-5.183855e-018	0.000000e+000
2.000000000000000e-005	0.000000e+000	0.000000e+000
2.000000112097349e-005	-2.240438e-005	2.241947e-004
2.000000336292048e-005	-6.719281e-005	6.725841e-004
2.000000784681444e-005	-1.566766e-004	1.569363e-003
2.000001579485124e-005	-3.149667e-004	3.158970e-003
2.000003169092483e-005	-6.304852e-004	6.338185e-003
2.000005321486444e-005	-1.055680e-003	1.064297e-002
2.000007854129177e-005	-1.553097e-003	1.570826e-002
2.000010181089017e-005	-2.007204e-003	2.036218e-002
2.000012649551141e-005	-2.485523e-003	2.529910e-002
2.000015833787513e-005	-3.097621e-003	3.166758e-002
2.000019732855383e-005	-3.839827e-003	3.946571e-002
2.000024723858570e-005	-4.778307e-003	4.944772e-002
2.000030872023637e-005	-5.916753e-003	6.174405e-002
2.000038675001415e-005	-7.334079e-003	7.735001e-002
2.000048375336103e-005	-9.054050e-003	9.675067e-002
2.000060666199090e-005	-1.116834e-002	1.213324e-001
2.000076070344040e-005	-1.371915e-002	1.521407e-001
2.000095631526953e-005	-1.680649e-002	1.912630e-001
2.000120369352982e-005	-2.048099e-002	2.407387e-001
2.000151994685202e-005	-2.483058e-002	3.039894e-001
2.000192487262408e-005	-2.987999e-002	3.849745e-001
2.000244941260704e-005	-3.565061e-002	4.898825e-001
2.000313431985549e-005	-4.206508e-002	6.268640e-001
2.000404349734135e-005	-4.907601e-002	8.086995e-001
2.000500000000000e-005	-5.530804e-002	1.000000e+000
2.000528695079760e-005	-4.595562e-002	9.426098e-001
2.000566955186105e-005	-3.472528e-002	8.660896e-001
2.000643475398797e-005	-1.579141e-002	7.130492e-001
2.000776791668136e-005	1.048745e-002	4.464166e-001
2.000869355805542e-005	2.411932e-002	2.612884e-001
2.001000000000000e-005	3.881698e-002	0.000000e+000
2.001039193258337e-005	3.467664e-002	0.000000e+000
2.001091450936120e-005	2.985657e-002	0.000000e+000
2.001195966291686e-005	2.193060e-002	0.000000e+000
2.001328849878535e-005	1.420059e-002	0.000000e+000
2.001457162915917e-005	8.788462e-003	0.000000e+000
2.001577273336482e-005	5.169153e-003	0.000000e+000
2.001689895976891e-005	2.694164e-003	0.000000e+000
2.001788182193163e-005	1.064945e-003	0.000000e+000
2.001861844127124e-005	1.225976e-004	0.000000e+000
2.001952388216480e-005	-7.900771e-004	0.000000e+000
2.002034173091386e-005	-1.429460e-003	0.000000e+000
2.002172084408070e-005	-2.223587e-003	0.000000e+000
2.002312037228267e-005	-2.779718e-003	0.000000e+000
2.002508136354378e-005	-3.259630e-003	0.000000e+000
2.002706915815448e-005	-3.526733e-003	0.000000e+000
2.002975176327282e-005	-3.678540e-003	0.000000e+000
2.003263614773498e-005	-3.708679e-003	0.000000e+000
2.003659883763242e-005	-3.646503e-003	0.000000e+000
2.004126764828682e-005	-3.521486e-003	0.000000e+000
2.005774043122963e-005	-3.039885e-003	0.000000e+000
2.007544728293842e-005	-2.600183e-003	0.000000e+000
2.011086098635600e-005	-1.899353e-003	0.000000e+000
2.015260097280072e-005	-1.288108e-003	0.000000e+000
2.019274675884575e-005	-8.823000e-004	0.000000e+000
2.023553640429677e-005	-5.894707e-004	0.000000e+000
2.027558926376553e-005	-4.033830e-004	0.000000e+000
2.031746594940821e-005	-2.718816e-004	0.000000e+000
2.035774323455869e-005	-1.858298e-004	0.000000e+000
2.039947599326010e-005	-1.254116e-004	0.000000e+000
2.044001021866407e-005	-8.551494e-005	0.000000e+000
2.048155515172417e-005	-5.780218e-005	0.000000e+000
2.052222102385285e-005	-3.936983e-005	0.000000e+000
2.056363580902625e-005	-2.664185e-005	0.000000e+000
2.060440860150699e-005	-1.812945e-005	0.000000e+000
2.064573522722403e-005	-1.227765e-005	0.000000e+000
2.068658211804075e-005	-8.349439e-006	0.000000e+000
2.072784482891436e-005	-5.657548e-006	0.000000e+000
2.076874410234818e-005	-3.845689e-006	0.000000e+000
2.080996200562163e-005	-2.606834e-006	0.000000e+000
2.085089838549956e-005	-1.771415e-006	0.000000e+000
2.089208467022404e-005	-1.201115e-006	0.000000e+000
2.093306588337146e-005	-8.158585e-007	0.000000e+000
2.097422043555078e-005	-5.533423e-007	0.000000e+000
2.101522601633682e-005	-3.757797e-007	0.000000e+000
2.105635766188918e-005	-2.549175e-007	0.000000e+000
2.109738225567255e-005	-1.730884e-007	0.000000e+000
2.113849828909192e-005	-1.174337e-007	0.000000e+000
2.117953622060860e-005	-7.972800e-008	0.000000e+000
2.122064095156641e-005	-5.409760e-008	0.000000e+000
2.126168832338083e-005	-3.672492e-008	0.000000e+000
2.130278507753985e-005	-2.492056e-008	0.000000e+000
2.134383916711342e-005	-1.691669e-008	0.000000e+000
2.138493026725302e-005	-1.147979e-008	0.000000e+000
2.142598910772282e-005	-7.792441e-009	0.000000e+000
2.146707620822877e-005	-5.306424e-009	0.000000e+000
2.151282733659677e-005	-3.480345e-009	0.000000e+000
2.156547033203953e-005	-2.146774e-009	0.000000e+000
2.162667405751901e-005	-1.224917e-009	0.000000e+000
2.169833762085390e-005	-6.360096e-010	0.000000e+000
2.178457243981524e-005	-2.879563e-010	0.000000e+000
2.208457243981523e-005	-1.465239e-011	0.000000e+000
3.000000000000000e-005	0.000000e+000	0.000000e+000
3.000001042482224e-005	-2.076610e-004	2.084964e-003
3.000003127446672e-005	-6.219333e-004	6.254893e-003
3.000004798567757e-005	-9.526284e-004	9.597136e-003
3.000006383250881e-005	-1.264656e-003	1.276650e-002
3.000008444132476e-005	-1.668316e-003	1.688826e-002
3.000010943352714e-005	-2.154948e-003	2.188671e-002
3.000013563222158e-005	-2.661401e-003	2.712644e-002
3.000017102269027e-005	-3.339662e-003	3.420454e-002
3.000021255206997e-005	-4.127169e-003	4.251041e-002
3.000026722382749e-005	-5.150205e-003	5.344477e-002
3.000033307378420e-005	-6.362115e-003	6.661475e-002
3.000041814357529e-005	-7.895485e-003	8.362871e-002
3.000052253726808e-005	-9.728703e-003	1.045075e-001
3.000065627357059e-005	-1.200144e-002	1.312547e-001
3.000082269886559e-005	-1.471541e-002	1.645398e-001
3.000103558487419e-005	-1.801093e-002	2.071170e-001
3.000130393908773e-005	-2.190040e-002	2.607878e-001
3.000164893026936e-005	-2.649945e-002	3.297861e-001
3.000209053754066e-005	-3.179120e-002	4.181075e-001
3.000266574742708e-005	-3.780385e-002	5.331495e-001
3.000341894955733e-005	-4.456175e-002	6.837899e-001
3.000399275646412e-005	-4.884923e-002	7.985513e-001
3.000500000000000e-005	-5.530052e-002	1.000000e+000
3.000530217306076e-005	-4.548292e-002	9.395654e-001
3.000570507047511e-005	-3.375648e-002	8.589859e-001
3.000651086530381e-005	-1.407095e-002	6.978269e-001
3.000783442167388e-005	1.171595e-002	4.331157e-001
3.000866972690808e-005	2.390148e-002	2.660546e-001
3.001000000000000e-005	3.881492e-002	0.000000e+000
3.001039908192758e-005	3.460507e-002	0.000000e+000
3.001093119116434e-005	2.971550e-002	0.000000e+000
3.001199540963788e-005	2.169466e-002	0.000000e+000
3.001332950623600e-005	1.399863e-002	0.000000e+000
3.001460918056087e-005	8.655246e-003	0.000000e+000
3.001580790318555e-005	5.079377e-003	0.000000e+000
3.001693132904717e-005	2.633083e-003	0.000000e+000
3.001790844100009e-005	1.026129e-003	0.000000e+000
3.001863529699672e-005	1.020333e-004	0.000000e+000
3.001953307865748e-005	-7.983392e-004	0.000000e+000
3.002036013755748e-005	-1.442052e-003	0.000000e+000
3.002173972567238e-005	-2.232561e-003	0.000000e+000
3.002314777698437e-005	-2.788478e-003	0.000000e+000
3.002510743838119e-005	-3.264326e-003	0.000000e+000
3.002710487580913e-005	-3.529943e-003	0.000000e+000
3.002978839825822e-005	-3.679547e-003	0.000000e+000
3.003268678700746e-005	-3.708355e-003	0.000000e+000
3.003665517810220e-005	-3.645161e-003	0.000000e+000
3.004135035748242e-005	-3.519002e-003	0.000000e+000
3.005792048041809e-005	-3.034911e-003	0.000000e+000
3.007576294995805e-005	-2.592970e-003	0.000000e+000
3.011144788903798e-005	-1.889454e-003	0.000000e+000
3.015327197134360e-005	-1.280008e-003	0.000000e+000
3.019339165967919e-005	-8.768588e-004	0.000000e+000
3.023614087382985e-005	-5.860743e-004	0.000000e+000
3.027619547383712e-005	-4.010708e-004	0.000000e+000
3.031807477146672e-005	-2.703175e-004	0.000000e+000
3.035835891642058e-005	-1.847480e-004	0.000000e+000
3.040008783123928e-005	-1.246852e-004	0.000000e+000
3.044062397074117e-005	-8.501828e-005	0.000000e+000
3.048216629480156e-005	-5.746786e-005	0.000000e+000
3.052283453296720e-005	-3.914131e-005	0.000000e+000
3.056424757120131e-005	-2.648761e-005	0.000000e+000
3.060502210395641e-005	-1.802422e-005	0.000000e+000
3.064634726162309e-005	-1.220654e-005	0.000000e+000
3.068719556728180e-005	-8.300975e-006	0.000000e+000
3.072845712220206e-005	-5.624766e-006	0.000000e+000
3.076935759532196e-005	-3.823365e-006	0.000000e+000
3.081057453604257e-005	-2.591724e-006	0.000000e+000
3.085151195621172e-005	-1.761131e-006	0.000000e+000
3.089269741376421e-005	-1.194150e-006	0.000000e+000
3.093367929360574e-005	-8.111230e-007	0.000000e+000
3.097483324773170e-005	-5.501334e-007	0.000000e+000
3.101583933651538e-005	-3.735989e-007	0.000000e+000
3.105697055134569e-005	-2.534390e-007	0.000000e+000
3.109799551634348e-005	-1.720840e-007	0.000000e+000
3.113911122833122e-005	-1.167525e-007	0.000000e+000
3.118014943651366e-005	-7.926537e-008	0.000000e+000
3.122125392654233e-005	-5.378380e-008	0.000000e+000
3.126230150847301e-005	-3.651182e-008	0.000000e+000
3.130339807803188e-005	-2.477601e-008	0.000000e+000
3.134445233037708e-005	-1.681854e-008	0.000000e+000
3.138554328567421e-005	-1.141319e-008	0.000000e+000
3.142660225565368e-005	-7.747230e-009	0.000000e+000
3.146768923926239e-005	-5.276147e-009	0.000000e+000
3.151357379318491e-005	-3.456507e-009	0.000000e+000
3.156629378018274e-005	-2.130520e-009	0.000000e+000
3.162767662940735e-005	-1.213702e-009	0.000000e+000
3.169947879488523e-005	-6.293815e-010	0.000000e+000
3.178601608514177e-005	-2.840989e-010	0.000000e+000
3.208601608514177e-005	-1.444117e-011	0.000000e+000
4.000000000000000e-005	0.000000e+000	0.000000e+000
4.000000540281801e-005	-1.078175e-004	1.080564e-003
4.000001620845404e-005	-3.231558e-004	3.241691e-003
4.000002583523407e-005	-5.145633e-004	5.167047e-003
4.000003569962451e-005	-7.100348e-004	7.139925e-003
4.000005542840541e-005	-1.099298e-003	1.108568e-002
4.000008009083559e-005	-1.583347e-003	1.601817e-002
