time	V(a)	I(I1)
0.000000000000000e+000	0.000000e+000	0.000000e+000
9.999999960041972e-013	-9.994442e-005	1.000000e-003
1.400326519387231e-012	-1.399512e-004	1.400326e-003
2.200979566153298e-012	-2.199487e-004	2.200980e-003
3.802285659685431e-012	-3.798804e-004	3.802286e-003
7.004897846749699e-012	-6.994844e-004	7.004898e-003
1.341012222087823e-011	-1.337657e-003	1.341012e-002
2.622057096913531e-011	-2.610872e-003	2.622057e-002
4.018457302892840e-011	-3.994282e-003	4.018457e-002
5.462833365075477e-011	-5.419923e-003	5.462833e-002
6.833215436515179e-011	-6.767105e-003	6.833216e-002
8.575068327132033e-011	-8.471796e-003	8.575068e-002
1.067039284062505e-010	-1.051149e-002	1.067039e-001
1.338105765489193e-010	-1.313271e-002	1.338106e-001
1.668732394573615e-010	-1.630342e-002	1.668732e-001
2.089964559798408e-010	-2.030126e-002	2.089965e-001
2.609289217099443e-010	-2.516646e-002	2.609289e-001
3.267085679218047e-010	-3.122950e-002	3.267086e-001
4.084756405725079e-010	-3.861421e-002	4.084756e-001
5.118586984673401e-010	-4.771567e-002	5.118587e-001
6.412730157712568e-010	-5.874917e-002	6.412730e-001
8.051704025435016e-010	-7.217993e-002	8.051704e-001
1.000000000000000e-009	-8.762607e-002	1.000000e+000
1.058448879236950e-009	-8.048946e-002	9.415511e-001
1.136380718219549e-009	-7.117905e-002	8.636193e-001
1.292244396184748e-009	-5.326737e-002	7.077556e-001
1.603971752115145e-009	-1.891175e-002	3.960283e-001
1.677689775388631e-009	-1.115803e-002	3.223102e-001
1.825125821935602e-009	3.615032e-003	1.748742e-001
2.000000000000000e-009	2.067270e-002	0.000000e+000
2.157386760257958e-009	1.980368e-002	0.000000e+000
2.314773520515917e-009	1.897261e-002	0.000000e+000
2.472160280773875e-009	1.817946e-002	0.000000e+000
2.629547041031833e-009	1.742426e-002	0.000000e+000
2.786933801289791e-009	1.670699e-002	0.000000e+000
2.944320561547748e-009	1.602766e-002	0.000000e+000
3.101707321805706e-009	1.538627e-002	0.000000e+000
4.220902061417852e-009	1.139241e-002	0.000000e+000
5.621602105681672e-009	7.617162e-003	0.000000e+000
6.985824718684449e-009	5.007184e-003	0.000000e+000
8.308655967216210e-009	3.255204e-003	0.000000e+000
9.707179576155384e-009	1.967175e-003	0.000000e+000
1.101677224387846e-008	1.118694e-003	0.000000e+000
1.215989552263825e-008	5.893499e-004	0.000000e+000
1.315499735153134e-008	2.467126e-004	0.000000e+000
1.393185046325361e-008	3.998778e-005	0.000000e+000
1.471343669058282e-008	-1.250245e-004	0.000000e+000
1.549180959016124e-008	-2.542027e-004	0.000000e+000
1.675856699323235e-008	-4.126495e-004	0.000000e+000
1.813681075216651e-008	-5.339911e-004	0.000000e+000
1.998011167496706e-008	-6.368188e-004	0.000000e+000
2.192812047298460e-008	-6.985036e-004	0.000000e+000
2.445102976696392e-008	-7.350658e-004	0.000000e+000
2.724566623878691e-008	-7.459901e-004	0.000000e+000
3.094093673745227e-008	-7.377926e-004	0.000000e+000
3.536311543631835e-008	-7.155603e-004	0.000000e+000
5.034595478088822e-008	-6.267597e-004	0.000000e+000
6.538048684557371e-008	-5.482820e-004	0.000000e+000
9.544955097494466e-008	-4.202116e-004	0.000000e+000
1.354203444666696e-007	-2.913193e-004	0.000000e+000
1.760842710759813e-007	-1.990851e-004	0.000000e+000
2.196743031316974e-007	-1.319441e-004	0.000000e+000
2.597198573498029e-007	-9.021473e-005	0.000000e+000
3.015317296665619e-007	-6.083742e-005	0.000000e+000
3.416848778729374e-007	-4.163585e-005	0.000000e+000
3.834841489039984e-007	-2.808527e-005	0.000000e+000
4.239919175641834e-007	-1.915488e-005	0.000000e+000
4.655824306334004e-007	-1.294209e-005	0.000000e+000
5.062106150953636e-007	-8.818017e-006	0.000000e+000
5.476553366005106e-007	-5.965775e-006	0.000000e+000
5.884013524797222e-007	-4.060657e-006	0.000000e+000
6.297537097571138e-007	-2.749385e-006	0.000000e+000
6.705792873867749e-007	-1.870100e-006	0.000000e+000
7.118624264483066e-007	-1.266985e-006	0.000000e+000
7.527656685433904e-007	-8.611928e-007	0.000000e+000
7.939897377467306e-007	-5.837464e-007	0.000000e+000
8.349399604220742e-007	-3.966227e-007	0.000000e+000
8.761215847008577e-007	-2.689442e-007	0.000000e+000
9.171070893813566e-007	-1.826768e-007	0.000000e+000
9.582593036806694e-007	-1.239020e-007	0.000000e+000
9.992697274293541e-007	-8.414064e-008	0.000000e+000
1.040400811305159e-006	-5.707949e-008	0.000000e+000
1.081428915183237e-006	-3.875622e-008	0.000000e+000
1.122545041011212e-006	-2.629491e-008	0.000000e+000
1.163585728576331e-006	-1.785196e-008	0.000000e+000
1.204691239346049e-006	-1.211312e-008	0.000000e+000
1.245740848982489e-006	-8.223120e-009	0.000000e+000
1.286838835534638e-006	-5.594337e-009	0.000000e+000
1.331367971686413e-006	-3.708179e-009	0.000000e+000
1.383316574943861e-006	-2.302391e-009	0.000000e+000
1.442884824074248e-006	-1.333045e-009	0.000000e+000
1.513296596214601e-006	-7.002011e-010	0.000000e+000
1.596789712369571e-006	-3.257628e-010	0.000000e+000
1.896789712369570e-006	-1.673158e-011	0.000000e+000
9.999999999999999e-006	0.000000e+000	0.000000e+000
1.000000220000000e-005	-2.197664e-004	2.200000e-003
1.000000660000000e-005	-6.590525e-004	6.600000e-003
1.000001051085931e-005	-1.049130e-003	1.051086e-002
1.000001491657398e-005	-1.487927e-003	1.491657e-002
1.000002372800330e-005	-2.363774e-003	2.372800e-002
1.000003613839249e-005	-3.593989e-003	3.613839e-002
1.000005095738575e-005	-5.058051e-003	5.095739e-002
1.000006454184215e-005	-6.394976e-003	6.454184e-002
1.000008088353264e-005	-7.996254e-003	8.088353e-002
1.000010076531298e-005	-9.934549e-003	1.007653e-001
1.000012620105276e-005	-1.239880e-002	1.262010e-001
1.000015753239841e-005	-1.541052e-002	1.575324e-001
1.000019715676142e-005	-1.918222e-002	1.971568e-001
1.000024627034585e-005	-2.380021e-002	2.462703e-001
1.000030819293509e-005	-2.953395e-002	3.081929e-001
1.000038539519641e-005	-3.654654e-002	3.853952e-001
1.000048271346204e-005	-4.517601e-002	4.827135e-001
1.000060471045176e-005	-5.567169e-002	6.047105e-001
1.000075887113225e-005	-6.856331e-002	7.588711e-001
1.000080547971732e-005	-7.235304e-002	8.054797e-001
1.000089869688746e-005	-7.973251e-002	8.986969e-001
1.000100000000000e-005	-8.762278e-002	1.000000e+000
1.000107091217878e-005	-7.896983e-002	9.290878e-001
1.000115195466881e-005	-6.932752e-002	8.480453e-001
1.000131403964887e-005	-5.080544e-002	6.859604e-001
1.000163820960900e-005	-1.524572e-002	3.617904e-001
1.000167555306614e-005	-1.131317e-002	3.244469e-001
1.000175023998042e-005	-3.734464e-003	2.497600e-001
1.000185062617144e-005	6.207478e-003	1.493738e-001
1.000200000000000e-005	2.067886e-002	6.968870e-013
1.000227100680324e-005	1.922462e-002	2.626164e-013
1.000254201360649e-005	1.786307e-002	-6.008248e-014
1.000281302040973e-005	1.659419e-002	-2.712095e-013
1.000308402721297e-005	1.541799e-002	-3.707648e-013
1.000335503401622e-005	1.433447e-002	-3.587483e-013
1.000362604081946e-005	1.334363e-002	-2.351601e-013
1.000389704762271e-005	1.244547e-002	0.000000e+000
1.000528530515565e-005	8.423656e-003	0.000000e+000
1.000668359377785e-005	5.510461e-003	0.000000e+000
1.000800891894383e-005	3.602196e-003	0.000000e+000
1.000942070647037e-005	2.194555e-003	0.000000e+000
1.001073227369231e-005	1.276479e-003	0.000000e+000
1.001189717653238e-005	6.963820e-004	0.000000e+000
1.001293448825986e-005	3.151968e-004	0.000000e+000
1.001377627467990e-005	7.721220e-005	0.000000e+000
1.001447607012335e-005	-8.053058e-005	0.000000e+000
1.001512932606813e-005	-1.979817e-004	0.000000e+000
1.001629232326019e-005	-3.601465e-004	0.000000e+000
1.001757285728398e-005	-4.898470e-004	0.000000e+000
1.001932427509910e-005	-6.063261e-004	0.000000e+000
1.002115204553825e-005	-6.786638e-004	0.000000e+000
1.002353335198715e-005	-7.257605e-004	0.000000e+000
1.002613384369322e-005	-7.443791e-004	0.000000e+000
1.002956591836175e-005	-7.426774e-004	0.000000e+000
1.003357543442555e-005	-7.255385e-004	0.000000e+000
1.004671003486976e-005	-6.478415e-004	0.000000e+000
1.005907124194265e-005	-5.795732e-004	0.000000e+000
1.008102189515098e-005	-4.784374e-004	0.000000e+000
1.012492320156765e-005	-3.234404e-004	0.000000e+000
1.016867354764292e-005	-2.130827e-004	0.000000e+000
1.020788731597141e-005	-1.467813e-004	0.000000e+000
1.024947046680705e-005	-9.928972e-005	0.000000e+000
1.028967889552886e-005	-6.794031e-005	0.000000e+000
1.033161097117604e-005	-4.576933e-005	0.000000e+000
1.037211838194271e-005	-3.121131e-005	0.000000e+000
1.041370354377865e-005	-2.108902e-005	0.000000e+000
1.045432500659676e-005	-1.436990e-005	0.000000e+000
1.049577236682381e-005	-9.721819e-006	0.000000e+000
1.053653530788585e-005	-6.616143e-006	0.000000e+000
1.057787985102568e-005	-4.479967e-006	0.000000e+000
1.061872765224645e-005	-3.046582e-006	0.000000e+000
1.065999496865048e-005	-2.064311e-006	0.000000e+000
1.070090559809904e-005	-1.403068e-006	0.000000e+000
1.074211994881752e-005	-9.511328e-007	0.000000e+000
1.078307922702196e-005	-6.461900e-007	0.000000e+000
1.082425359665630e-005	-4.381995e-007	0.000000e+000
1.086524581714807e-005	-2.976238e-007	0.000000e+000
1.090639173434432e-005	-2.018768e-007	0.000000e+000
1.094740781575415e-005	-1.370858e-007	0.000000e+000
1.098853364397328e-005	-9.300081e-008	0.000000e+000
1.102956666572074e-005	-6.314360e-008	0.000000e+000
1.107067815725107e-005	-4.284275e-008	0.000000e+000
1.111172322995116e-005	-2.908538e-008	0.000000e+000
1.115282453612091e-005	-1.973608e-008	0.000000e+000
1.119387818798234e-005	-1.339757e-008	0.000000e+000
1.123497225112356e-005	-9.091585e-009	0.000000e+000
1.127603200355078e-005	-6.177321e-009	0.000000e+000
1.131841543742684e-005	-4.171487e-009	0.000000e+000
1.136903228055940e-005	-2.622504e-009	0.000000e+000
1.142572688275228e-005	-1.557965e-009	0.000000e+000
1.149380756299682e-005	-8.359715e-010	0.000000e+000
1.157252267106866e-005	-4.072189e-010	0.000000e+000
1.177125542113041e-005	-5.926163e-011	0.000000e+000
1.217125542113041e-005	-1.043799e-012	0.000000e+000
2.000000000000000e-005	0.000000e+000	0.000000e+000
2.000000220000000e-005	-2.197664e-004	2.200000e-003
2.000000660000000e-005	-6.590525e-004	6.600000e-003
2.000001051085931e-005	-1.049130e-003	1.051086e-002
2.000001491657397e-005	-1.487927e-003	1.491657e-002
2.000002372800329e-005	-2.363774e-003	2.372800e-002
2.000003613839248e-005	-3.593989e-003	3.613839e-002
2.000005095738574e-005	-5.058051e-003	5.095739e-002
2.000006454184215e-005	-6.394976e-003	6.454184e-002
2.000008088353263e-005	-7.996254e-003	8.088353e-002
2.000010076531297e-005	-9.934549e-003	1.007653e-001
2.000012620105275e-005	-1.239880e-002	1.262010e-001
2.000015753239840e-005	-1.541052e-002	1.575324e-001
2.000019715676140e-005	-1.918222e-002	1.971568e-001
2.000024627034583e-005	-2.380021e-002	2.462703e-001
2.000030819293507e-005	-2.953395e-002	3.081929e-001
2.000038539519639e-005	-3.654654e-002	3.853952e-001
2.000048271346201e-005	-4.517601e-002	4.827135e-001
2.000060471045172e-005	-5.567169e-002	6.047105e-001
2.000075887113220e-005	-6.856331e-002	7.588711e-001
2.000080547971733e-005	-7.235304e-002	8.054797e-001
2.000089869688759e-005	-7.973251e-002	8.986969e-001
2.000100000000000e-005	-8.762278e-002	1.000000e+000
2.000107091217868e-005	-7.896983e-002	9.290878e-001
2.000115195466860e-005	-6.932752e-002	8.480453e-001
2.000131403964845e-005	-5.080544e-002	6.859604e-001
2.000163820960814e-005	-1.524572e-002	3.617904e-001
2.000167555306612e-005	-1.131317e-002	3.244469e-001
2.000175023998208e-005	-3.734464e-003	2.497600e-001
2.000185062616808e-005	6.207477e-003	1.493738e-001
2.000200000000000e-005	2.067886e-002	0.000000e+000
2.000227100680934e-005	1.922462e-002	0.000000e+000
2.000254201361868e-005	1.786307e-002	0.000000e+000
2.000281302042803e-005	1.659419e-002	0.000000e+000
2.000308402723737e-005	1.541799e-002	0.000000e+000
2.000335503404671e-005	1.433447e-002	0.000000e+000
2.000362604085605e-005	1.334363e-002	0.000000e+000
2.000389704766539e-005	1.244547e-002	0.000000e+000
2.000528530520055e-005	8.423656e-003	0.000000e+000
2.000668359381823e-005	5.510461e-003	0.000000e+000
2.000800891898382e-005	3.602196e-003	0.000000e+000
2.000942070650857e-005	2.194555e-003	0.000000e+000
2.001073227373033e-005	1.276479e-003	0.000000e+000
2.001189717656771e-005	6.963820e-004	0.000000e+000
2.001293448828989e-005	3.151968e-004	0.000000e+000
2.001377627470187e-005	7.721219e-005	0.000000e+000
2.001447607015672e-005	-8.053059e-005	0.000000e+000
2.001512932612289e-005	-1.979817e-004	0.000000e+000
2.001629232332947e-005	-3.601465e-004	0.000000e+000
2.001757285737012e-005	-4.898470e-004	0.000000e+000
2.001932427519707e-005	-6.063261e-004	0.000000e+000
2.002115204565611e-005	-6.786638e-004	0.000000e+000
2.002353335212381e-005	-7.257605e-004	0.000000e+000
2.002613384386050e-005	-7.443791e-004	0.000000e+000
2.002956591856465e-005	-7.426774e-004	0.000000e+000
2.003357543469026e-005	-7.255385e-004	0.000000e+000
2.004671003539064e-005	-6.478415e-004	0.000000e+000
2.005907124280645e-005	-5.795732e-004	0.000000e+000
2.008102189701094e-005	-4.784374e-004	0.000000e+000
2.012492320541992e-005	-3.234404e-004	0.000000e+000
2.016867355054066e-005	-2.130827e-004	0.000000e+000
2.020788731826704e-005	-1.467813e-004	0.000000e+000
2.024947046896959e-005	-9.928972e-005	0.000000e+000
2.028967889791479e-005	-6.794031e-005	0.000000e+000
2.033161097356306e-005	-4.576933e-005	0.000000e+000
2.037211838437107e-005	-3.121131e-005	0.000000e+000
2.041370354613907e-005	-2.108902e-005	0.000000e+000
2.045432500899736e-005	-1.436990e-005	0.000000e+000
2.049577236919166e-005	-9.721819e-006	0.000000e+000
2.053653531029073e-005	-6.616143e-006	0.000000e+000
2.057787985340158e-005	-4.479966e-006	0.000000e+000
2.061872765465068e-005	-3.046582e-006	0.000000e+000
2.065999497103112e-005	-2.064311e-006	0.000000e+000
2.070090560050442e-005	-1.403068e-006	0.000000e+000
2.074211995120323e-005	-9.511328e-007	0.000000e+000
2.078307922942362e-005	-6.461900e-007	0.000000e+000
2.082425359904369e-005	-4.381995e-007	0.000000e+000
2.086524581954755e-005	-2.976237e-007	0.000000e+000
2.090639173673354e-005	-2.018768e-007	0.000000e+000
2.094740781815218e-005	-1.370858e-007	0.000000e+000
2.098853364636370e-005	-9.300081e-008	0.000000e+000
2.102956666811770e-005	-6.314360e-008	0.000000e+000
2.107067815964234e-005	-4.284275e-008	0.000000e+000
2.111172323234737e-005	-2.908538e-008	0.000000e+000
2.115282453851279e-005	-1.973608e-008	0.000000e+000
2.119387819037802e-005	-1.339757e-008	0.000000e+000
2.123497225351588e-005	-9.091584e-009	0.000000e+000
2.127603200594610e-005	-6.177321e-009	0.000000e+000
2.131841544029960e-005	-4.171486e-009	0.000000e+000
2.136903228372194e-005	-2.622504e-009	0.000000e+000
2.142572688655090e-005	-1.557965e-009	0.000000e+000
2.149380756730299e-005	-8.359715e-010	0.000000e+000
2.157252267641961e-005	-4.072189e-010	0.000000e+000
2.177125542761459e-005	-5.926162e-011	0.000000e+000
2.999900000000000e-005	9.407219e-028	0.000000e+000
3.000000000000000e-005	7.091027e-028	0.000000e+000
