time	V(a)	I(I1)
0.000000000000000e+000	0.000000e+000	0.000000e+000
9.999999960041972e-013	-9.994449e-005	1.000000e-003
1.400326166739145e-012	-1.399513e-004	1.400326e-003
2.200978508209039e-012	-2.199488e-004	2.200979e-003
3.802283191148829e-012	-3.798805e-004	3.802283e-003
7.004892557028407e-012	-6.994850e-004	7.004892e-003
1.341011128878757e-011	-1.337660e-003	1.341011e-002
2.622054875230588e-011	-2.610881e-003	2.622055e-002
4.019206806686546e-011	-3.995048e-003	4.019207e-002
5.463866806066099e-011	-5.420987e-003	5.463867e-002
6.834949280288887e-011	-6.768876e-003	6.834950e-002
8.576908289077682e-011	-8.473703e-003	8.576908e-002
1.067294828038676e-010	-1.051414e-002	1.067295e-001
1.338394142233710e-010	-1.313575e-002	1.338394e-001
1.669117114924253e-010	-1.630750e-002	1.669117e-001
2.090415259864301e-010	-2.030614e-002	2.090415e-001
2.609872456051993e-010	-2.517286e-002	2.609873e-001
3.267782246976671e-010	-3.123737e-002	3.267782e-001
4.085639171476413e-010	-3.862441e-002	4.085639e-001
5.119649913064797e-010	-4.772847e-002	5.119650e-001
6.414054493121166e-010	-5.876572e-002	6.414055e-001
8.053296464797152e-010	-7.220119e-002	8.053296e-001
1.000000000000000e-009	-8.763825e-002	1.000000e+000
1.058401106056086e-009	-8.050860e-002	9.415989e-001
1.136269247464200e-009	-7.120687e-002	8.637307e-001
1.292005530280427e-009	-5.331058e-002	7.079945e-001
1.603478095912883e-009	-1.898295e-002	3.965219e-001
1.677646515704756e-009	-1.118193e-002	3.223535e-001
1.825983355288501e-009	3.681788e-003	1.740166e-001
2.000000000000000e-009	2.065616e-002	0.000000e+000
2.156614980240349e-009	1.979285e-002	0.000000e+000
2.313229960480699e-009	1.896704e-002	0.000000e+000
2.469844940721048e-009	1.817872e-002	0.000000e+000
2.626459920961397e-009	1.742790e-002	0.000000e+000
2.783074901201746e-009	1.671458e-002	0.000000e+000
2.939689881442095e-009	1.603876e-002	0.000000e+000
3.096304861682444e-009	1.540043e-002	0.000000e+000
4.210011387836038e-009	1.142460e-002	0.000000e+000
5.612070256275005e-009	7.641742e-003	0.000000e+000
6.979214386966212e-009	5.022045e-003	0.000000e+000
8.303507433578938e-009	3.265515e-003	0.000000e+000
9.704045589601395e-009	1.973910e-003	0.000000e+000
1.101509047759715e-008	1.123404e-003	0.000000e+000
1.216017473128779e-008	5.925555e-004	0.000000e+000
1.315778765701115e-008	2.487537e-004	0.000000e+000
1.393768578732823e-008	4.107243e-005	0.000000e+000
1.471767371693668e-008	-1.237310e-004	0.000000e+000
1.549381908415275e-008	-2.526871e-004	0.000000e+000
1.675882777479186e-008	-4.112198e-004	0.000000e+000
1.813620946095184e-008	-5.328220e-004	0.000000e+000
1.997857981903892e-008	-6.359859e-004	0.000000e+000
2.192563184374785e-008	-6.979533e-004	0.000000e+000
2.444680788864387e-008	-7.347709e-004	0.000000e+000
2.723918871737844e-008	-7.458805e-004	0.000000e+000
3.093016314684150e-008	-7.378314e-004	0.000000e+000
3.534522288931780e-008	-7.157076e-004	0.000000e+000
5.028631587864977e-008	-6.271579e-004	0.000000e+000
6.524663220452230e-008	-5.489744e-004	0.000000e+000
9.516726485626738e-008	-4.212968e-004	0.000000e+000
1.350825860433568e-007	-2.922589e-004	0.000000e+000
1.757574560465123e-007	-1.997190e-004	0.000000e+000
2.193685970411031e-007	-1.323342e-004	0.000000e+000
2.594132730825699e-007	-9.047841e-005	0.000000e+000
3.012215031547444e-007	-6.101618e-005	0.000000e+000
3.413699158942848e-007	-4.175954e-005	0.000000e+000
3.831689328864019e-007	-2.816843e-005	0.000000e+000
4.236749541659445e-007	-1.921161e-005	0.000000e+000
4.652646040125726e-007	-1.298032e-005	0.000000e+000
5.058908382468831e-007	-8.844087e-006	0.000000e+000
5.473341497257845e-007	-5.983402e-006	0.000000e+000
5.880786210559514e-007	-4.072651e-006	0.000000e+000
6.294293729706933e-007	-2.757506e-006	0.000000e+000
6.702536603897473e-007	-1.875618e-006	0.000000e+000
7.115349710456838e-007	-1.270725e-006	0.000000e+000
7.524367118283000e-007	-8.637342e-007	0.000000e+000
7.936589969610713e-007	-5.854699e-007	0.000000e+000
8.346077322014332e-007	-3.977932e-007	0.000000e+000
8.757876095734708e-007	-2.697382e-007	0.000000e+000
9.167716014587360e-007	-1.832159e-007	0.000000e+000
9.579220796717570e-007	-1.242678e-007	0.000000e+000
9.989309778975944e-007	-8.438897e-008	0.000000e+000
1.040060336651798e-006	-5.724799e-008	0.000000e+000
1.081086908097061e-006	-3.887060e-008	0.000000e+000
1.122201314172955e-006	-2.637254e-008	0.000000e+000
1.163240465470819e-006	-1.790464e-008	0.000000e+000
1.204344258772342e-006	-1.214888e-008	0.000000e+000
1.245392331166195e-006	-8.247389e-009	0.000000e+000
1.286488600244172e-006	-5.610588e-009	0.000000e+000
1.330951389139059e-006	-3.721030e-009	0.000000e+000
1.382859947232109e-006	-2.311195e-009	0.000000e+000
1.442339403391056e-006	-1.339176e-009	0.000000e+000
1.512680684151610e-006	-7.038590e-010	0.000000e+000
1.596026081784790e-006	-3.279350e-010	0.000000e+000
1.896026081784790e-006	-1.684908e-011	0.000000e+000
9.999999999999999e-006	0.000000e+000	0.000000e+000
1.000000220000000e-005	-2.197666e-004	2.200000e-003
1.000000660000000e-005	-6.590535e-004	6.600000e-003
1.000001051085256e-005	-1.049132e-003	1.051085e-002
1.000001491656230e-005	-1.487930e-003	1.491656e-002
1.000002372798177e-005	-2.363781e-003	2.372798e-002
1.000003614091007e-005	-3.594259e-003	3.614091e-002
1.000005096595531e-005	-5.058936e-003	5.096595e-002
1.000006455479667e-005	-6.396311e-003	6.455480e-002
1.000008089908172e-005	-7.997872e-003	8.089908e-002
1.000010078499837e-005	-9.936615e-003	1.007850e-001
1.000012622492312e-005	-1.240134e-002	1.262249e-001
1.000015756250190e-005	-1.541376e-002	1.575625e-001
1.000019719357854e-005	-1.918627e-002	1.971936e-001
1.000024631634491e-005	-2.380538e-002	2.463163e-001
1.000030824925777e-005	-2.954047e-002	3.082493e-001
1.000038546495009e-005	-3.655488e-002	3.854649e-001
1.000048279858357e-005	-4.518665e-002	4.827986e-001
1.000060481474025e-005	-5.568540e-002	6.048148e-001
1.000075899716908e-005	-6.858107e-002	7.589971e-001
1.000080545398130e-005	-7.235933e-002	8.054540e-001
1.000089836760572e-005	-7.971674e-002	8.983676e-001
1.000100000000000e-005	-8.763497e-002	1.000000e+000
1.000107114267600e-005	-7.895570e-002	9.288573e-001
1.000115244859142e-005	-6.928457e-002	8.475514e-001
1.000131506042226e-005	-5.070873e-002	6.849396e-001
1.000164028408395e-005	-1.504374e-002	3.597159e-001
1.000167554924665e-005	-1.132983e-002	3.244508e-001
1.000174607957205e-005	-4.175587e-003	2.539204e-001
1.000185893934920e-005	6.999213e-003	1.410607e-001
1.000200000000000e-005	2.066246e-002	6.968870e-013
1.000225592432360e-005	1.928578e-002	2.626164e-013
1.000251184864720e-005	1.799380e-002	-6.008248e-014
1.000276777297080e-005	1.678652e-002	-2.712095e-013
1.000302369729440e-005	1.566395e-002	-3.707648e-013
1.000327962161801e-005	1.462607e-002	-3.587483e-013
1.000353554594161e-005	1.367291e-002	-2.351601e-013
1.000379147026521e-005	1.280444e-002	0.000000e+000
1.000518508855785e-005	8.681434e-003	0.000000e+000
1.000659968750017e-005	5.661042e-003	0.000000e+000
1.000792603817887e-005	3.706604e-003	0.000000e+000
1.000934243656370e-005	2.263515e-003	0.000000e+000
1.001065520428609e-005	1.324849e-003	0.000000e+000
1.001182711078856e-005	7.293976e-004	0.000000e+000
1.001287708217699e-005	3.364821e-004	0.000000e+000
1.001373717011438e-005	8.911183e-005	0.000000e+000
1.001441225809904e-005	-6.582118e-005	0.000000e+000
1.001504640011139e-005	-1.823931e-004	0.000000e+000
1.001616400101592e-005	-3.429778e-004	0.000000e+000
1.001742781002511e-005	-4.760456e-004	0.000000e+000
1.001913721195331e-005	-5.955884e-004	0.000000e+000
1.002094557146028e-005	-6.718057e-004	0.000000e+000
1.002327195239709e-005	-7.220036e-004	0.000000e+000
1.002583460970467e-005	-7.432246e-004	0.000000e+000
1.002917606007447e-005	-7.436788e-004	0.000000e+000
1.003309276664573e-005	-7.280706e-004	0.000000e+000
1.004574498931428e-005	-6.535884e-004	0.000000e+000
1.005739096256002e-005	-5.883613e-004	0.000000e+000
1.007759571762134e-005	-4.927020e-004	0.000000e+000
1.011800522774396e-005	-3.445510e-004	0.000000e+000
1.016355802063042e-005	-2.248766e-004	0.000000e+000
1.020680716551614e-005	-1.486887e-004	0.000000e+000
1.024714424729056e-005	-1.013359e-004	0.000000e+000
1.028777450635733e-005	-6.910523e-005	0.000000e+000
1.032860162239426e-005	-4.704145e-005	0.000000e+000
1.036991349524120e-005	-3.186438e-005	0.000000e+000
1.041094589581462e-005	-2.163041e-005	0.000000e+000
1.045208814203179e-005	-1.467113e-005	0.000000e+000
1.049307831343574e-005	-9.964736e-006	0.000000e+000
1.053419175571534e-005	-6.761089e-006	0.000000e+000
1.057522845415888e-005	-4.590277e-006	0.000000e+000
1.061632516602819e-005	-3.114874e-006	0.000000e+000
1.065737832447455e-005	-2.114453e-006	0.000000e+000
1.069845616790452e-005	-1.435068e-006	0.000000e+000
1.073952298999052e-005	-9.740583e-007	0.000000e+000
1.078060424521369e-005	-6.610587e-007	0.000000e+000
1.082167383068936e-005	-4.486816e-007	0.000000e+000
1.086275108939211e-005	-3.045150e-007	0.000000e+000
1.090382214515631e-005	-2.066819e-007	0.000000e+000
1.094489789836324e-005	-1.402745e-007	0.000000e+000
1.098597060376820e-005	-9.520640e-008	0.000000e+000
1.102704514217049e-005	-6.461702e-008	0.000000e+000
1.106811885779504e-005	-4.385615e-008	0.000000e+000
1.110919248056685e-005	-2.976561e-008	0.000000e+000
1.115026696688761e-005	-2.020205e-008	0.000000e+000
1.119133993751827e-005	-1.371141e-008	0.000000e+000
1.123241499054639e-005	-9.305950e-009	0.000000e+000
1.127348747224692e-005	-6.319892e-009	0.000000e+000
1.131536686544034e-005	-4.286450e-009	0.000000e+000
1.136570424040867e-005	-2.701797e-009	0.000000e+000
1.142173281603594e-005	-1.614633e-009	0.000000e+000
1.148931301372464e-005	-8.703397e-010	0.000000e+000
1.156694635780772e-005	-4.279521e-010	0.000000e+000
1.176454784095936e-005	-6.339549e-011	0.000000e+000
1.246454784095936e-005	-5.395325e-014	0.000000e+000
2.000000000000000e-005	0.000000e+000	0.000000e+000
2.000000214685826e-005	-2.144622e-004	2.146858e-003
2.000000644057480e-005	-6.431520e-004	6.440575e-003
2.000001025681207e-005	-1.023811e-003	1.025681e-002
2.000001466242614e-005	-1.462628e-003	1.466243e-002
2.000002347365427e-005	-2.338520e-003	2.347365e-002
2.000003587890320e-005	-3.568322e-003	3.587890e-002
2.000005070913834e-005	-5.033614e-003	5.070914e-002
2.000006429318712e-005	-6.370620e-003	6.429319e-002
2.000008054473585e-005	-7.963233e-003	8.054473e-002
2.000010036466939e-005	-9.895748e-003	1.003647e-001
2.000012567340625e-005	-1.234809e-002	1.256734e-001
2.000015689688006e-005	-1.535005e-002	1.568969e-001
2.000019633772538e-005	-1.910524e-002	1.963377e-001
2.000024526745884e-005	-2.370741e-002	2.452675e-001
2.000030691335454e-005	-2.941780e-002	3.069133e-001
2.000038381010992e-005	-3.640611e-002	3.838101e-001
2.000048069905649e-005	-4.500290e-002	4.806991e-001
2.000060219134623e-005	-5.546337e-002	6.021913e-001
2.000075566685017e-005	-6.830615e-002	7.556669e-001
2.000080632190001e-005	-7.242476e-002	8.063219e-001
2.000090763199970e-005	-8.044343e-002	9.076320e-001
2.000100000000000e-005	-8.763493e-002	1.000000e+000
2.000106465760021e-005	-7.973758e-002	9.353424e-001
2.000113855200045e-005	-7.091756e-002	8.614480e-001
2.000128634080092e-005	-5.391508e-002	7.136592e-001
2.000158191840188e-005	-2.128010e-002	4.180816e-001
2.000167446470749e-005	-1.151962e-002	3.255353e-001
2.000181490738879e-005	2.587720e-003	1.850926e-001
2.000200000000000e-005	2.066008e-002	0.000000e+000
2.000216658335009e-005	1.974369e-002	0.000000e+000
2.000233316670017e-005	1.886920e-002	0.000000e+000
2.000249975005026e-005	1.803664e-002	0.000000e+000
2.000266633340035e-005	1.724599e-002	0.000000e+000
2.000283291675043e-005	1.649725e-002	0.000000e+000
2.000299950010052e-005	1.579044e-002	0.000000e+000
2.000316608345060e-005	1.512553e-002	0.000000e+000
2.000435067616233e-005	1.099857e-002	0.000000e+000
2.000576966642735e-005	7.292247e-003	0.000000e+000
2.000712631055972e-005	4.809196e-003	0.000000e+000
2.000859370086339e-005	2.962822e-003	0.000000e+000
2.000991504488585e-005	1.812580e-003	0.000000e+000
2.001125957412776e-005	1.000935e-003	0.000000e+000
2.001247493706508e-005	4.752794e-004	0.000000e+000
2.001342369572145e-005	1.700270e-004	0.000000e+000
2.001409606243282e-005	2.789334e-006	0.000000e+000
2.001494181057402e-005	-1.643664e-004	0.000000e+000
2.001580960313025e-005	-2.982053e-004	0.000000e+000
2.001718051224038e-005	-4.539198e-004	0.000000e+000
2.001862736423195e-005	-5.665413e-004	0.000000e+000
2.002056819109626e-005	-6.591302e-004	0.000000e+000
2.002260746641873e-005	-7.119440e-004	0.000000e+000
2.002527828129338e-005	-7.405985e-004	0.000000e+000
2.002823407772940e-005	-7.456113e-004	0.000000e+000
2.003220042420315e-005	-7.323882e-004	0.000000e+000
2.005386376367204e-005	-6.073334e-004	0.000000e+000
2.007203645789219e-005	-5.174411e-004	0.000000e+000
2.010838184633250e-005	-3.748097e-004	0.000000e+000
2.015041498364564e-005	-2.532346e-004	0.000000e+000
2.019047409984155e-005	-1.735220e-004	0.000000e+000
2.023312370254463e-005	-1.160945e-004	0.000000e+000
2.027318203693586e-005	-7.945378e-005	0.000000e+000
2.031506727329859e-005	-5.354852e-005	0.000000e+000
2.035536808761932e-005	-3.659145e-005	0.000000e+000
2.039708776666437e-005	-2.469707e-005	0.000000e+000
2.043762811404703e-005	-1.683947e-005	0.000000e+000
2.047916435285962e-005	-1.138323e-005	0.000000e+000
2.051983768724052e-005	-7.752769e-006	0.000000e+000
2.056124693896347e-005	-5.246604e-006	0.000000e+000
2.060202488822185e-005	-3.570088e-006	0.000000e+000
2.064334706902799e-005	-2.417833e-006	0.000000e+000
2.068419786908641e-005	-1.644196e-006	0.000000e+000
2.072545730925591e-005	-1.114147e-006	0.000000e+000
2.076637706373037e-005	-7.571875e-007	0.000000e+000
2.080758360423198e-005	-5.133189e-007	0.000000e+000
2.084854559659402e-005	-3.487308e-007	0.000000e+000
2.088971419142023e-005	-2.364927e-007	0.000000e+000
2.093070778023876e-005	-1.606211e-007	0.000000e+000
2.097185001967327e-005	-1.089504e-007	0.000000e+000
2.101286593431556e-005	-7.398260e-008	0.000000e+000
2.105398925001848e-005	-5.019112e-008	0.000000e+000
2.109502101113372e-005	-3.407755e-008	0.000000e+000
2.113613092385319e-005	-2.312150e-008	0.000000e+000
2.117717396491202e-005	-1.569694e-008	0.000000e+000
2.121827436209554e-005	-1.065120e-008	0.000000e+000
2.125932540484483e-005	-7.230486e-009	0.000000e+000
2.130041905328421e-005	-4.929613e-009	0.000000e+000
2.134790838565093e-005	-3.185168e-009	0.000000e+000
2.140156193509849e-005	-1.945997e-009	0.000000e+000
2.146510614474575e-005	-1.087444e-009	0.000000e+000
2.153859194033863e-005	-5.552033e-010	0.000000e+000
2.172881143155418e-005	-9.134216e-011	0.000000e+000
3.000000000000000e-005	0.000000e+000	0.000000e+000
3.000000220000000e-005	-2.197666e-004	2.200000e-003
3.000000660000000e-005	-6.590535e-004	6.600000e-003
3.000001051085257e-005	-1.049132e-003	1.051085e-002
3.000001491656230e-005	-1.487930e-003	1.491656e-002
3.000002372798178e-005	-2.363781e-003	2.372798e-002
3.000003614091008e-005	-3.594259e-003	3.614091e-002
3.000005096595532e-005	-5.058936e-003	5.096595e-002
3.000006455479668e-005	-6.396311e-003	6.455480e-002
3.000008089908173e-005	-7.997872e-003	8.089908e-002
3.000010078499838e-005	-9.936615e-003	1.007850e-001
3.000012622492314e-005	-1.240134e-002	1.262249e-001
3.000015756250192e-005	-1.541376e-002	1.575625e-001
3.000019719357857e-005	-1.918627e-002	1.971936e-001
3.000024631634495e-005	-2.380538e-002	2.463163e-001
3.000030824925782e-005	-2.954047e-002	3.082493e-001
3.000038546495016e-005	-3.655488e-002	3.854649e-001
3.000048279858364e-005	-4.518665e-002	4.827986e-001
3.000060481474035e-005	-5.568540e-002	6.048148e-001
3.000075899716921e-005	-6.858107e-002	7.589971e-001
3.000080545398126e-005	-7.235933e-002	8.054540e-001
3.000089836760535e-005	-7.971674e-002	8.983676e-001
3.000100000000000e-005	-8.763497e-002	1.000000e+000
3.000107114267625e-005	-7.895570e-002	9.288573e-001
3.000115244859197e-005	-6.928457e-002	8.475514e-001
3.000131506042340e-005	-5.070873e-002	6.849396e-001
3.000164028408627e-005	-1.504374e-002	3.597159e-001
3.000167554924668e-005	-1.132983e-002	3.244508e-001
3.000174607956751e-005	-4.175587e-003	2.539204e-001
3.000185893935834e-005	6.999214e-003	1.410606e-001
3.000200000000000e-005	2.066246e-002	0.000000e+000
3.000225592430700e-005	1.928578e-002	0.000000e+000
3.000251184861401e-005	1.799380e-002	0.000000e+000
3.000276777292101e-005	1.678652e-002	0.000000e+000
3.000302369722802e-005	1.566395e-002	0.000000e+000
3.000327962153502e-005	1.462607e-002	0.000000e+000
3.000353554584203e-005	1.367291e-002	0.000000e+000
3.000379147014903e-005	1.280444e-002	0.000000e+000
3.000518508848873e-005	8.681434e-003	0.000000e+000
3.000659968746186e-005	5.661042e-003	0.000000e+000
3.000792603813384e-005	3.706604e-003	0.000000e+000
3.000934243651564e-005	2.263515e-003	0.000000e+000
3.001065520423542e-005	1.324849e-003	0.000000e+000
3.001182711074091e-005	7.293976e-004	0.000000e+000
3.001287708213598e-005	3.364822e-004	0.000000e+000
3.001373717008329e-005	8.911184e-005	0.000000e+000
3.001441225805268e-005	-6.582116e-005	0.000000e+000
3.001504640009874e-005	-1.823930e-004	0.000000e+000
3.001616400095526e-005	-3.429778e-004	0.000000e+000
3.001742780998596e-005	-4.760456e-004	0.000000e+000
3.001913721186185e-005	-5.955884e-004	0.000000e+000
3.002094557139347e-005	-6.718057e-004	0.000000e+000
3.002327195227310e-005	-7.220036e-004	0.000000e+000
3.002583460960151e-005	-7.432246e-004	0.000000e+000
3.002917605989410e-005	-7.436788e-004	0.000000e+000
3.003309276647376e-005	-7.280706e-004	0.000000e+000
3.004574498896893e-005	-6.535884e-004	0.000000e+000
3.005739096183471e-005	-5.883613e-004	0.000000e+000
3.007759571644949e-005	-4.927020e-004	0.000000e+000
3.011800522567904e-005	-3.445510e-004	0.000000e+000
3.016355801910262e-005	-2.248767e-004	0.000000e+000
3.020680716373964e-005	-1.486887e-004	0.000000e+000
3.024714424583083e-005	-1.013359e-004	0.000000e+000
3.028777450462051e-005	-6.910523e-005	0.000000e+000
3.032860162086068e-005	-4.704145e-005	0.000000e+000
3.036991349352399e-005	-3.186438e-005	0.000000e+000
3.041094589425494e-005	-2.163041e-005	0.000000e+000
3.045208814034103e-005	-1.467113e-005	0.000000e+000
3.049307831185509e-005	-9.964736e-006	0.000000e+000
3.053419175403942e-005	-6.761089e-006	0.000000e+000
3.057522845256251e-005	-4.590277e-006	0.000000e+000
3.061632516436332e-005	-3.114874e-006	0.000000e+000
3.065737832286719e-005	-2.114453e-006	0.000000e+000
3.069845616624724e-005	-1.435068e-006	0.000000e+000
3.073952298837498e-005	-9.740583e-007	0.000000e+000
3.078060424356307e-005	-6.610587e-007	0.000000e+000
3.082167382906851e-005	-4.486816e-007	0.000000e+000
3.086275108774611e-005	-3.045150e-007	0.000000e+000
3.090382214353154e-005	-2.066819e-007	0.000000e+000
3.094489789672050e-005	-1.402745e-007	0.000000e+000
3.098597060214066e-005	-9.520640e-008	0.000000e+000
3.102704514053008e-005	-6.461702e-008	0.000000e+000
3.106811885616553e-005	-4.385615e-008	0.000000e+000
3.110919247892810e-005	-2.976561e-008	0.000000e+000
3.115026696525669e-005	-2.020205e-008	0.000000e+000
3.119133993588070e-005	-1.371141e-008	0.000000e+000
3.123241498891448e-005	-9.305950e-009	0.000000e+000
3.127348747061019e-005	-6.319892e-009	0.000000e+000
3.131536686348576e-005	-4.286450e-009	0.000000e+000
3.136570423825584e-005	-2.701797e-009	0.000000e+000
3.142173281345923e-005	-1.614633e-009	0.000000e+000
3.148931301080388e-005	-8.703397e-010	0.000000e+000
3.156694635419208e-005	-4.279521e-010	0.000000e+000
3.176454783658372e-005	-6.339550e-011	0.000000e+000
4.000000000000000e-005	0.000000e+000	0.000000e+000
4.000000189797025e-005	-1.896163e-004	1.897970e-003
4.000000569391076e-005	-5.686608e-004	5.693911e-003
