Freq.	V(line_2)
1.00000000000000e+000	(-8.40364047074135e+001dB,8.99604000063055e+001°)
1.02329299228075e+000	(-8.38364048051853e+001dB,8.99594776042621e+001°)
1.04712854805090e+000	(-8.36364049075648e+001dB,8.99585337167369e+001°)
1.07151930523761e+000	(-8.34364050147694e+001dB,8.99575678432700e+001°)
1.09647819614318e+000	(-8.32364051270263e+001dB,8.99565794717450e+001°)
1.12201845430196e+000	(-8.30364052445738e+001dB,8.99555680781164e+001°)
1.14815362149688e+000	(-8.28364053676611e+001dB,8.99545331261325e+001°)
1.17489755493953e+000	(-8.26364054965493e+001dB,8.99534740670507e+001°)
1.20226443461741e+000	(-8.24364056315118e+001dB,8.99523903393468e+001°)
1.23026877081238e+000	(-8.22364057728349e+001dB,8.99512813684172e+001°)
1.25892541179417e+000	(-8.20364059208184e+001dB,8.99501465662741e+001°)
1.28824955169313e+000	(-8.18364060757760e+001dB,8.99489853312339e+001°)
1.31825673855641e+000	(-8.16364062380367e+001dB,8.99477970475982e+001°)
1.34896288259165e+000	(-8.14364064079444e+001dB,8.99465810853275e+001°)
1.38038426460288e+000	(-8.12364065858596e+001dB,8.99453367997069e+001°)
1.41253754462275e+000	(-8.10364067721597e+001dB,8.99440635310042e+001°)
1.44543977074593e+000	(-8.08364069672398e+001dB,8.99427606041207e+001°)
1.47910838816821e+000	(-8.06364071715138e+001dB,8.99414273282327e+001°)
1.51356124843621e+000	(-8.04364073854149e+001dB,8.99400629964254e+001°)
1.54881661891248e+000	(-8.02364076093968e+001dB,8.99386668853182e+001°)
1.58489319246111e+000	(-8.00364078439347e+001dB,8.99372382546811e+001°)
1.62181009735893e+000	(-7.98364080895260e+001dB,8.99357763470425e+001°)
1.65958690743756e+000	(-7.96364083466916e+001dB,8.99342803872871e+001°)
1.69824365246174e+000	(-7.94364086159771e+001dB,8.99327495822455e+001°)
1.73780082874937e+000	(-7.92364088979535e+001dB,8.99311831202732e+001°)
1.77827941003892e+000	(-7.90364091932191e+001dB,8.99295801708208e+001°)
1.81970085860998e+000	(-7.88364095024001e+001dB,8.99279398839934e+001°)
1.86208713666287e+000	(-7.86364098261524e+001dB,8.99262613900998e+001°)
1.90546071796325e+000	(-7.84364101651626e+001dB,8.99245437991920e+001°)
1.94984459975804e+000	(-7.82364105201498e+001dB,8.99227862005928e+001°)
1.99526231496888e+000	(-7.80364108918670e+001dB,8.99209876624135e+001°)
2.04173794466953e+000	(-7.78364112811026e+001dB,8.99191472310595e+001°)
2.08929613085404e+000	(-7.76364116886824e+001dB,8.99172639307249e+001°)
2.13796208950223e+000	(-7.74364121154707e+001dB,8.99153367628753e+001°)
2.18776162394955e+000	(-7.72364125623730e+001dB,8.99133647057181e+001°)
2.23872113856834e+000	(-7.70364130303370e+001dB,8.99113467136614e+001°)
2.29086765276777e+000	(-7.68364135203554e+001dB,8.99092817167590e+001°)
2.34422881531992e+000	(-7.66364140334676e+001dB,8.99071686201437e+001°)
2.39883291901949e+000	(-7.64364145707620e+001dB,8.99050063034467e+001°)
2.45470891568503e+000	(-7.62364151333783e+001dB,8.99027936202038e+001°)
2.51188643150958e+000	(-7.60364157225097e+001dB,8.99005293972474e+001°)
2.57039578276886e+000	(-7.58364163394060e+001dB,8.98982124340848e+001°)
2.63026799189538e+000	(-7.56364169853755e+001dB,8.98958415022618e+001°)
2.69153480392691e+000	(-7.54364176617887e+001dB,8.98934153447116e+001°)
2.75422870333816e+000	(-7.52364183700800e+001dB,8.98909326750879e+001°)
2.81838293126445e+000	(-7.50364191117520e+001dB,8.98883921770840e+001°)
2.88403150312660e+000	(-7.48364198883777e+001dB,8.98857925037341e+001°)
2.95120922666638e+000	(-7.46364207016046e+001dB,8.98831322766997e+001°)
3.01995172040201e+000	(-7.44364215531575e+001dB,8.98804100855393e+001°)
3.09029543251359e+000	(-7.42364224448427e+001dB,8.98776244869602e+001°)
3.16227766016837e+000	(-7.40364233785514e+001dB,8.98747740040540e+001°)
3.23593656929628e+000	(-7.38364243562644e+001dB,8.98718571255132e+001°)
3.31131121482591e+000	(-7.36364253800552e+001dB,8.98688723048308e+001°)
3.38844156139202e+000	(-7.34364264520956e+001dB,8.98658179594802e+001°)
3.46736850452531e+000	(-7.32364275746595e+001dB,8.98626924700766e+001°)
3.54813389233575e+000	(-7.30364287501278e+001dB,8.98594941795185e+001°)
3.63078054770101e+000	(-7.28364299809939e+001dB,8.98562213921098e+001°)
3.71535229097172e+000	(-7.26364312698685e+001dB,8.98528723726606e+001°)
3.80189396320560e+000	(-7.24364326194855e+001dB,8.98494453455682e+001°)
3.89045144994280e+000	(-7.22364340327076e+001dB,8.98459384938756e+001°)
3.98107170553496e+000	(-7.20364355125323e+001dB,8.98423499583087e+001°)
4.07380277804112e+000	(-7.18364370620984e+001dB,8.98386778362912e+001°)
4.16869383470335e+000	(-7.16364386846927e+001dB,8.98349201809361e+001°)
4.26579518801592e+000	(-7.14364403837569e+001dB,8.98310750000141e+001°)
4.36515832240165e+000	(-7.12364421628948e+001dB,8.98271402548981e+001°)
4.46683592150962e+000	(-7.10364440258802e+001dB,8.98231138594826e+001°)
4.57088189614874e+000	(-7.08364459766644e+001dB,8.98189936790788e+001°)
4.67735141287197e+000	(-7.06364480193854e+001dB,8.98147775292829e+001°)
4.78630092322637e+000	(-7.04364501583757e+001dB,8.98104631748192e+001°)
4.89778819368445e+000	(-7.02364523981725e+001dB,8.98060483283558e+001°)
5.01187233627271e+000	(-7.00364547435264e+001dB,8.98015306492924e+001°)
5.12861383991364e+000	(-6.98364571994121e+001dB,8.97969077425206e+001°)
5.24807460249771e+000	(-6.96364597710386e+001dB,8.97921771571549e+001°)
5.37031796370252e+000	(-6.94364624638605e+001dB,8.97873363852345e+001°)
5.49540873857623e+000	(-6.92364652835894e+001dB,8.97823828603947e+001°)
5.62341325190348e+000	(-6.90364682362060e+001dB,8.97773139565073e+001°)
5.75439937337156e+000	(-6.88364713279731e+001dB,8.97721269862900e+001°)
5.88843655355588e+000	(-6.86364745654482e+001dB,8.97668191998828e+001°)
6.02559586074356e+000	(-6.84364779554983e+001dB,8.97613877833917e+001°)
6.16595001861481e+000	(-6.82364815053137e+001dB,8.97558298573986e+001°)
6.30957344480192e+000	(-6.80364852224237e+001dB,8.97501424754360e+001°)
6.45654229034654e+000	(-6.78364891147122e+001dB,8.97443226224273e+001°)
6.60693448007594e+000	(-6.76364931904349e+001dB,8.97383672130902e+001°)
6.76082975391980e+000	(-6.74364974582363e+001dB,8.97322730903028e+001°)
6.91830970918935e+000	(-6.72365019271686e+001dB,8.97260370234324e+001°)
7.07945784384136e+000	(-6.70365066067102e+001dB,8.97196557066250e+001°)
7.24435960074988e+000	(-6.68365115067865e+001dB,8.97131257570558e+001°)
7.41310241300916e+000	(-6.66365166377902e+001dB,8.97064437131378e+001°)
7.58577575029182e+000	(-6.64365220106043e+001dB,8.96996060326905e+001°)
7.76247116628690e+000	(-6.62365276366241e+001dB,8.96926090910647e+001°)
7.94328234724279e+000	(-6.60365335277823e+001dB,8.96854491792246e+001°)
8.12830516164097e+000	(-6.58365396965736e+001dB,8.96781225017851e+001°)
8.31763771102669e+000	(-6.56365461560818e+001dB,8.96706251750038e+001°)
8.51138038202374e+000	(-6.54365529200068e+001dB,8.96629532247265e+001°)
8.70963589956078e+000	(-6.52365600026946e+001dB,8.96551025842846e+001°)
8.91250938133743e+000	(-6.50365674191667e+001dB,8.96470690923445e+001°)
9.12010839355907e+000	(-6.48365751851529e+001dB,8.96388484907065e+001°)
9.33254300796988e+000	(-6.46365833171238e+001dB,8.96304364220535e+001°)
9.54992586021433e+000	(-6.44365918323264e+001dB,8.96218284276467e+001°)
9.77237220955808e+000	(-6.42366007488202e+001dB,8.96130199449688e+001°)
9.99999999999997e+000	(-6.40366100855158e+001dB,8.96040063053121e+001°)
1.02329299228075e+001	(-6.38366198622148e+001dB,8.95947827313114e+001°)
1.04712854805090e+001	(-6.36366300996518e+001dB,8.95853443344188e+001°)
1.07151930523760e+001	(-6.34366408195385e+001dB,8.95756861123216e+001°)
1.09647819614318e+001	(-6.32366520446096e+001dB,8.95658029462993e+001°)
1.12201845430196e+001	(-6.30366637986708e+001dB,8.95556895985205e+001°)
1.14815362149688e+001	(-6.28366761066498e+001dB,8.95453407092763e+001°)
1.17489755493953e+001	(-6.26366889946486e+001dB,8.95347507941514e+001°)
1.20226443461741e+001	(-6.24367024899991e+001dB,8.95239142411283e+001°)
1.23026877081238e+001	(-6.22367166213209e+001dB,8.95128253076261e+001°)
1.25892541179416e+001	(-6.20367314185821e+001dB,8.95014781174703e+001°)
1.28824955169313e+001	(-6.18367469131627e+001dB,8.94898666577930e+001°)
1.31825673855640e+001	(-6.16367631379211e+001dB,8.94779847758619e+001°)
1.34896288259165e+001	(-6.14367801272639e+001dB,8.94658261758360e+001°)
1.38038426460288e+001	(-6.12367979172185e+001dB,8.94533844154476e+001°)
1.41253754462275e+001	(-6.10368165455097e+001dB,8.94406529026066e+001°)
1.44543977074592e+001	(-6.08368360516396e+001dB,8.94276248919284e+001°)
1.47910838816820e+001	(-6.06368564769711e+001dB,8.94142934811810e+001°)
1.51356124843620e+001	(-6.04368778648160e+001dB,8.94006516076512e+001°)
1.54881661891248e+001	(-6.02369002605260e+001dB,8.93866920444274e+001°)
1.58489319246111e+001	(-6.00369237115895e+001dB,8.93724073965975e+001°)
1.62181009735892e+001	(-5.98369482677319e+001dB,8.93577900973594e+001°)
1.65958690743755e+001	(-5.96369739810208e+001dB,8.93428324040429e+001°)
1.69824365246174e+001	(-5.94370009059765e+001dB,8.93275263940411e+001°)
1.73780082874937e+001	(-5.92370290996873e+001dB,8.93118639606482e+001°)
1.77827941003892e+001	(-5.90370586219307e+001dB,8.92958368088033e+001°)
1.81970085860998e+001	(-5.88370895352994e+001dB,8.92794364507366e+001°)
1.86208713666286e+001	(-5.86371219053344e+001dB,8.92626542015174e+001°)
1.90546071796324e+001	(-5.84371558006636e+001dB,8.92454811745000e+001°)
1.94984459975804e+001	(-5.82371912931470e+001dB,8.92279082766673e+001°)
1.99526231496887e+001	(-5.80372284580286e+001dB,8.92099262038682e+001°)
2.04173794466952e+001	(-5.78372673740963e+001dB,8.91915254359477e+001°)
2.08929613085403e+001	(-5.76373081238480e+001dB,8.91726962317665e+001°)
2.13796208950222e+001	(-5.74373507936665e+001dB,8.91534286241089e+001°)
2.18776162394954e+001	(-5.72373954740023e+001dB,8.91337124144756e+001°)
2.23872113856833e+001	(-5.70374422595648e+001dB,8.91135371677594e+001°)
2.29086765276776e+001	(-5.68374912495227e+001dB,8.90928922068012e+001°)
2.34422881531991e+001	(-5.66375425477139e+001dB,8.90717666068250e+001°)
2.39883291901948e+001	(-5.64375962628649e+001dB,8.90501491897469e+001°)
2.45470891568502e+001	(-5.62376525088210e+001dB,8.90280285183588e+001°)
2.51188643150957e+001	(-5.60377114047865e+001dB,8.90053928903808e+001°)
2.57039578276885e+001	(-5.58377730755774e+001dB,8.89822303323828e+001°)
2.63026799189537e+001	(-5.56378376518844e+001dB,8.89585285935707e+001°)
2.69153480392690e+001	(-5.54379052705500e+001dB,8.89342751394354e+001°)
2.75422870333815e+001	(-5.52379760748566e+001dB,8.89094571452611e+001°)
2.81838293126444e+001	(-5.50380502148303e+001dB,8.88840614894918e+001°)
2.88403150312659e+001	(-5.48381278475567e+001dB,8.88580747469514e+001°)
2.95120922666637e+001	(-5.46382091375134e+001dB,8.88314831819157e+001°)
3.01995172040200e+001	(-5.44382942569170e+001dB,8.88042727410334e+001°)
3.09029543251358e+001	(-5.42383833860865e+001dB,8.87764290460934e+001°)
3.16227766016837e+001	(-5.40384767138238e+001dB,8.87479373866350e+001°)
3.23593656929627e+001	(-5.38385744378123e+001dB,8.87187827123991e+001°)
3.31131121482590e+001	(-5.36386767650338e+001dB,8.86889496256166e+001°)
3.38844156139201e+001	(-5.34387839122045e+001dB,8.86584223731324e+001°)
3.46736850452530e+001	(-5.32388961062326e+001dB,8.86271848383607e+001°)
3.54813389233574e+001	(-5.30390135846960e+001dB,8.85952205330703e+001°)
3.63078054770100e+001	(-5.28391365963428e+001dB,8.85625125889956e+001°)
3.71535229097171e+001	(-5.26392654016156e+001dB,8.85290437492722e+001°)
3.80189396320559e+001	(-5.24394002731995e+001dB,8.84947963596929e+001°)
3.89045144994279e+001	(-5.22395414965963e+001dB,8.84597523597820e+001°)
3.98107170553495e+001	(-5.20396893707249e+001dB,8.84238932736851e+001°)
4.07380277804111e+001	(-5.18398442085501e+001dB,8.83872002008724e+001°)
4.16869383470333e+001	(-5.16400063377406e+001dB,8.83496538066519e+001°)
4.26579518801591e+001	(-5.14401761013576e+001dB,8.83112343124900e+001°)
4.36515832240164e+001	(-5.12403538585752e+001dB,8.82719214861391e+001°)
4.46683592150961e+001	(-5.10405399854347e+001dB,8.82316946315660e+001°)
4.57088189614873e+001	(-5.08407348756335e+001dB,8.81905325786838e+001°)
4.67735141287196e+001	(-5.06409389413511e+001dB,8.81484136728799e+001°)
4.78630092322636e+001	(-5.04411526141131e+001dB,8.81053157643429e+001°)
4.89778819368444e+001	(-5.02413763456952e+001dB,8.80612161971829e+001°)
5.01187233627270e+001	(-5.00416106090692e+001dB,8.80160917983460e+001°)
5.12861383991362e+001	(-4.98418558993928e+001dB,8.79699188663192e+001°)
5.24807460249770e+001	(-4.96421127350453e+001dB,8.79226731596272e+001°)
5.37031796370250e+001	(-4.94423816587107e+001dB,8.78743298851169e+001°)
5.49540873857622e+001	(-4.92426632385111e+001dB,8.78248636860309e+001°)
5.62341325190346e+001	(-4.90429580691926e+001dB,8.77742486298690e+001°)
5.75439937337154e+001	(-4.88432667733651e+001dB,8.77224581960366e+001°)
5.88843655355586e+001	(-4.86435900027999e+001dB,8.76694652632801e+001°)
6.02559586074355e+001	(-4.84439284397865e+001dB,8.76152420969111e+001°)
6.16595001861479e+001	(-4.82442827985517e+001dB,8.75597603358180e+001°)
6.30957344480190e+001	(-4.80446538267439e+001dB,8.75029909792674e+001°)
6.45654229034652e+001	(-4.78450423069853e+001dB,8.74449043734968e+001°)
6.60693448007593e+001	(-4.76454490584947e+001dB,8.73854701981001e+001°)
6.76082975391978e+001	(-4.74458749387853e+001dB,8.73246574522090e+001°)
6.91830970918933e+001	(-4.72463208454385e+001dB,8.72624344404731e+001°)
7.07945784384134e+001	(-4.70467877179597e+001dB,8.71987687588423e+001°)
7.24435960074986e+001	(-4.68472765397177e+001dB,8.71336272801571e+001°)
7.41310241300914e+001	(-4.66477883399722e+001dB,8.70669761395498e+001°)
7.58577575029180e+001	(-4.64483241959928e+001dB,8.69987807196649e+001°)
7.76247116628688e+001	(-4.62488852352745e+001dB,8.69290056357035e+001°)
7.94328234724277e+001	(-4.60494726378519e+001dB,8.68576147203008e+001°)
8.12830516164095e+001	(-4.58500876387182e+001dB,8.67845710082447e+001°)
8.31763771102667e+001	(-4.56507315303529e+001dB,8.67098367210449e+001°)
8.51138038202372e+001	(-4.54514056653620e+001dB,8.66333732513643e+001°)
8.70963589956076e+001	(-4.52521114592368e+001dB,8.65551411473239e+001°)
8.91250938133741e+001	(-4.50528503932346e+001dB,8.64751000966950e+001°)
9.12010839355905e+001	(-4.48536240173883e+001dB,8.63932089109936e+001°)
9.33254300796986e+001	(-4.46544339536487e+001dB,8.63094255094924e+001°)
9.54992586021431e+001	(-4.44552818991656e+001dB,8.62237069031704e+001°)
9.77237220955805e+001	(-4.42561696297130e+001dB,8.61360091786168e+001°)
9.99999999999995e+001	(-4.40570990032651e+001dB,8.60462874819138e+001°)
1.02329299228075e+002	(-4.38580719637275e+001dB,8.59544960025188e+001°)
1.04712854805089e+002	(-4.36590905448317e+001dB,8.58605879571748e+001°)
1.07151930523760e+002	(-4.34601568741980e+001dB,8.57645155738739e+001°)
1.09647819614318e+002	(-4.32612731775734e+001dB,8.56662300759064e+001°)
1.12201845430196e+002	(-4.30624417832521e+001dB,8.55656816660276e+001°)
1.14815362149688e+002	(-4.28636651266845e+001dB,8.54628195107775e+001°)
1.17489755493952e+002	(-4.26649457552829e+001dB,8.53575917249931e+001°)
1.20226443461741e+002	(-4.24662863334298e+001dB,8.52499453565548e+001°)
1.23026877081237e+002	(-4.22676896476975e+001dB,8.51398263714107e+001°)
1.25892541179416e+002	(-4.20691586122861e+001dB,8.50271796389300e+001°)
1.28824955169313e+002	(-4.18706962746871e+001dB,8.49119489176350e+001°)
1.31825673855640e+002	(-4.16723058215814e+001dB,8.47940768413711e+001°)
1.34896288259165e+002	(-4.14739905849790e+001dB,8.46735049059730e+001°)
1.38038426460288e+002	(-4.12757540486088e+001dB,8.45501734564933e+001°)
1.41253754462275e+002	(-4.10775998545659e+001dB,8.44240216750645e+001°)
1.44543977074592e+002	(-4.08795318102265e+001dB,8.42949875694673e+001°)
1.47910838816820e+002	(-4.06815538954358e+001dB,8.41630079624871e+001°)
1.51356124843620e+002	(-4.04836702699798e+001dB,8.40280184821443e+001°)
1.54881661891247e+002	(-4.02858852813477e+001dB,8.38899535528901e+001°)
1.58489319246110e+002	(-4.00882034727930e+001dB,8.37487463878658e+001°)
1.62181009735892e+002	(-3.98906295917028e+001dB,8.36043289823314e+001°)
1.65958690743755e+002	(-3.96931685982808e+001dB,8.34566321083735e+001°)
1.69824365246173e+002	(-3.94958256745540e+001dB,8.33055853110125e+001°)
1.73780082874936e+002	(-3.92986062337089e+001dB,8.31511169058358e+001°)
1.77827941003891e+002	(-3.91015159297652e+001dB,8.29931539782907e+001°)
1.81970085860997e+002	(-3.89045606675932e+001dB,8.28316223847795e+001°)
1.86208713666286e+002	(-3.87077466132811e+001dB,8.26664467557102e+001°)
1.90546071796323e+002	(-3.85110802048584e+001dB,8.24975505006606e+001°)
1.94984459975803e+002	(-3.83145681633794e+001dB,8.23248558158268e+001°)
1.99526231496887e+002	(-3.81182175043723e+001dB,8.21482836939368e+001°)
2.04173794466952e+002	(-3.79220355496562e+001dB,8.19677539368158e+001°)
2.08929613085403e+002	(-3.77260299395289e+001dB,8.17831851708056e+001°)
2.13796208950222e+002	(-3.75302086453272e+001dB,8.15944948652477e+001°)
2.18776162394954e+002	(-3.73345799823585e+001dB,8.14015993542505e+001°)
2.23872113856832e+002	(-3.71391526232038e+001dB,8.12044138619739e+001°)
2.29086765276776e+002	(-3.69439356113885e+001dB,8.10028525316753e+001°)
2.34422881531991e+002	(-3.67489383754158e+001dB,8.07968284587706e+001°)
2.39883291901947e+002	(-3.65541707431577e+001dB,8.05862537281784e+001°)
2.45470891568501e+002	(-3.63596429565927e+001dB,8.03710394562237e+001°)
2.51188643150956e+002	(-3.61653656868808e+001dB,8.01510958373922e+001°)
2.57039578276885e+002	(-3.59713500497624e+001dB,7.99263321962354e+001°)
2.63026799189536e+002	(-3.57776076212620e+001dB,7.96966570447369e+001°)
2.69153480392690e+002	(-3.55841504536811e+001dB,7.94619781454652e+001°)
2.75422870333815e+002	(-3.53909910918538e+001dB,7.92222025808424e+001°)
2.81838293126443e+002	(-3.51981425896407e+001dB,7.89772368288736e+001°)
2.88403150312659e+002	(-3.50056185266300e+001dB,7.87269868456860e+001°)
2.95120922666637e+002	(-3.48134330250113e+001dB,7.84713581552366e+001°)
3.01995172040200e+002	(-3.46216007665824e+001dB,7.82102559465553e+001°)
3.09029543251357e+002	(-3.44301370098458e+001dB,7.79435851788907e+001°)
3.16227766016836e+002	(-3.42390576071446e+001dB,7.76712506951352e+001°)
3.23593656929626e+002	(-3.40483790217845e+001dB,7.73931573439030e+001°)
3.31131121482589e+002	(-3.38581183450790e+001dB,7.71092101106369e+001°)
3.38844156139200e+002	(-3.36682933132529e+001dB,7.68193142581153e+001°)
3.46736850452529e+002	(-3.34789223241294e+001dB,7.65233754767261e+001°)
3.54813389233573e+002	(-3.32900244535211e+001dB,7.62213000448635e+001°)
3.63078054770099e+002	(-3.31016194712361e+001dB,7.59129949997940e+001°)
3.71535229097170e+002	(-3.29137278566061e+001dB,7.55983683193183e+001°)
3.80189396320558e+002	(-3.27263708134315e+001dB,7.52773291145383e+001°)
3.89045144994278e+002	(-3.25395702842341e+001dB,7.49497878340110e+001°)
3.98107170553494e+002	(-3.23533489636980e+001dB,7.46156564795404e+001°)
4.07380277804110e+002	(-3.21677303111707e+001dB,7.42748488338258e+001°)
4.16869383470332e+002	(-3.19827385620898e+001dB,7.39272807001373e+001°)
4.26579518801589e+002	(-3.17983987381895e+001dB,7.35728701541464e+001°)
4.36515832240163e+002	(-3.16147366563360e+001dB,7.32115378079811e+001°)
4.46683592150960e+002	(-3.14317789358296e+001dB,7.28432070865130e+001°)
4.57088189614872e+002	(-3.12495530040046e+001dB,7.24678045158141e+001°)
4.67735141287195e+002	(-3.10680870999521e+001dB,7.20852600236424e+001°)
4.78630092322635e+002	(-3.08874102761806e+001dB,7.16955072517305e+001°)
4.89778819368443e+002	(-3.07075523980243e+001dB,7.12984838795537e+001°)
5.01187233627268e+002	(-3.05285441406048e+001dB,7.08941319591539e+001°)
5.12861383991361e+002	(-3.03504169831447e+001dB,7.04823982604822e+001°)
5.24807460249769e+002	(-3.01732032004293e+001dB,7.00632346266007e+001°)
