Freq.	V(line_2)
1.00000000000000e+000	(-9.00570066652638e+001dB,8.99442000176415e+001°)
1.02329299228075e+000	(-8.98570068593931e+001dB,8.99429002699340e+001°)
1.04712854805090e+000	(-8.96570070626714e+001dB,8.99415702472739e+001°)
1.07151930523761e+000	(-8.94570072755300e+001dB,8.99402092444715e+001°)
1.09647819614318e+000	(-8.92570074984202e+001dB,8.99388165399113e+001°)
1.12201845430196e+000	(-8.90570077318149e+001dB,8.99373913951692e+001°)
1.14815362149688e+000	(-8.88570079762091e+001dB,8.99359330546220e+001°)
1.17489755493953e+000	(-8.86570082321213e+001dB,8.99344407450455e+001°)
1.20226443461741e+000	(-8.84570085000942e+001dB,8.99329136752058e+001°)
1.23026877081238e+000	(-8.82570087806963e+001dB,8.99313510354387e+001°)
1.25892541179417e+000	(-8.80570090745228e+001dB,8.99297519972213e+001°)
1.28824955169313e+000	(-8.78570093821968e+001dB,8.99281157127324e+001°)
1.31825673855641e+000	(-8.76570097043710e+001dB,8.99264413144029e+001°)
1.34896288259165e+000	(-8.74570100417289e+001dB,8.99247279144561e+001°)
1.38038426460288e+000	(-8.72570103949858e+001dB,8.99229746044370e+001°)
1.41253754462275e+000	(-8.70570107648912e+001dB,8.99211804547306e+001°)
1.44543977074593e+000	(-8.68570111522297e+001dB,8.99193445140689e+001°)
1.47910838816821e+000	(-8.66570115578229e+001dB,8.99174658090270e+001°)
1.51356124843621e+000	(-8.64570119825310e+001dB,8.99155433435068e+001°)
1.54881661891248e+000	(-8.62570124272550e+001dB,8.99135760982091e+001°)
1.58489319246111e+000	(-8.60570128929381e+001dB,8.99115630300927e+001°)
1.62181009735893e+000	(-8.58570133805681e+001dB,8.99095030718224e+001°)
1.65958690743756e+000	(-8.56570138911794e+001dB,8.99073951312022e+001°)
1.69824365246174e+000	(-8.54570144258550e+001dB,8.99052380905969e+001°)
1.73780082874937e+000	(-8.52570149857290e+001dB,8.99030308063397e+001°)
1.77827941003892e+000	(-8.50570155719889e+001dB,8.99007721081252e+001°)
1.81970085860998e+000	(-8.48570161858784e+001dB,8.98984607983900e+001°)
1.86208713666287e+000	(-8.46570168286995e+001dB,8.98960956516772e+001°)
1.90546071796325e+000	(-8.44570175018157e+001dB,8.98936754139869e+001°)
1.94984459975804e+000	(-8.42570182066547e+001dB,8.98911988021116e+001°)
1.99526231496888e+000	(-8.40570189447117e+001dB,8.98886645029560e+001°)
2.04173794466953e+000	(-8.38570197175522e+001dB,8.98860711728408e+001°)
2.08929613085404e+000	(-8.36570205268153e+001dB,8.98834174367906e+001°)
2.13796208950223e+000	(-8.34570213742176e+001dB,8.98807018878049e+001°)
2.18776162394955e+000	(-8.32570222615566e+001dB,8.98779230861125e+001°)
2.23872113856834e+000	(-8.30570231907144e+001dB,8.98750795584085e+001°)
2.29086765276777e+000	(-8.28570241636619e+001dB,8.98721697970727e+001°)
2.34422881531992e+000	(-8.26570251824627e+001dB,8.98691922593713e+001°)
2.39883291901949e+000	(-8.24570262492779e+001dB,8.98661453666387e+001°)
2.45470891568503e+000	(-8.22570273663703e+001dB,8.98630275034411e+001°)
2.51188643150958e+000	(-8.20570285361093e+001dB,8.98598370167201e+001°)
2.57039578276886e+000	(-8.18570297609760e+001dB,8.98565722149164e+001°)
2.63026799189538e+000	(-8.16570310435686e+001dB,8.98532313670739e+001°)
2.69153480392691e+000	(-8.14570323866075e+001dB,8.98498127019217e+001°)
2.75422870333816e+000	(-8.12570337929414e+001dB,8.98463144069358e+001°)
2.81838293126445e+000	(-8.10570352655533e+001dB,8.98427346273782e+001°)
2.88403150312660e+000	(-8.08570368075667e+001dB,8.98390714653142e+001°)
2.95120922666638e+000	(-8.06570384222524e+001dB,8.98353229786067e+001°)
3.01995172040201e+000	(-8.04570401130353e+001dB,8.98314871798869e+001°)
3.09029543251359e+000	(-8.02570418835015e+001dB,8.98275620355012e+001°)
3.16227766016837e+000	(-8.00570437374065e+001dB,8.98235454644334e+001°)
3.23593656929628e+000	(-7.98570456786826e+001dB,8.98194353372024e+001°)
3.31131121482591e+000	(-7.96570477114472e+001dB,8.98152294747337e+001°)
3.38844156139202e+000	(-7.94570498400120e+001dB,8.98109256472047e+001°)
3.46736850452531e+000	(-7.92570520688919e+001dB,8.98065215728635e+001°)
3.54813389233575e+000	(-7.90570544028144e+001dB,8.98020149168199e+001°)
3.63078054770101e+000	(-7.88570568467300e+001dB,8.97974032898083e+001°)
3.71535229097172e+000	(-7.86570594058222e+001dB,8.97926842469223e+001°)
3.80189396320560e+000	(-7.84570620855192e+001dB,8.97878552863190e+001°)
3.89045144994280e+000	(-7.82570648915046e+001dB,8.97829138478941e+001°)
3.98107170553496e+000	(-7.80570678297301e+001dB,8.97778573119260e+001°)
4.07380277804112e+000	(-7.78570709064278e+001dB,8.97726829976874e+001°)
4.16869383470335e+000	(-7.76570741281234e+001dB,8.97673881620263e+001°)
4.26579518801592e+000	(-7.74570775016503e+001dB,8.97619699979127e+001°)
4.36515832240165e+000	(-7.72570810341638e+001dB,8.97564256329521e+001°)
4.46683592150962e+000	(-7.70570847331565e+001dB,8.97507521278643e+001°)
4.57088189614874e+000	(-7.68570886064740e+001dB,8.97449464749272e+001°)
4.67735141287197e+000	(-7.66570926623315e+001dB,8.97390055963840e+001°)
4.78630092322637e+000	(-7.64570969093317e+001dB,8.97329263428133e+001°)
4.89778819368445e+000	(-7.62571013564824e+001dB,8.97267054914624e+001°)
5.01187233627271e+000	(-7.60571060132160e+001dB,8.97203397445404e+001°)
5.12861383991364e+000	(-7.58571108894093e+001dB,8.97138257274732e+001°)
5.24807460249771e+000	(-7.56571159954046e+001dB,8.97071599871166e+001°)
5.37031796370252e+000	(-7.54571213420317e+001dB,8.97003389899290e+001°)
5.49540873857623e+000	(-7.52571269406305e+001dB,8.96933591201012e+001°)
5.62341325190348e+000	(-7.50571328030753e+001dB,8.96862166776431e+001°)
5.75439937337156e+000	(-7.48571389418002e+001dB,8.96789078764255e+001°)
5.88843655355588e+000	(-7.46571453698250e+001dB,8.96714288421772e+001°)
6.02559586074356e+000	(-7.44571521007831e+001dB,8.96637756104355e+001°)
6.16595001861481e+000	(-7.42571591489503e+001dB,8.96559441244485e+001°)
6.30957344480192e+000	(-7.40571665292751e+001dB,8.96479302330299e+001°)
6.45654229034654e+000	(-7.38571742574104e+001dB,8.96397296883634e+001°)
6.60693448007594e+000	(-7.36571823497468e+001dB,8.96313381437562e+001°)
6.76082975391980e+000	(-7.34571908234472e+001dB,8.96227511513413e+001°)
6.91830970918935e+000	(-7.32571996964830e+001dB,8.96139641597255e+001°)
7.07945784384136e+000	(-7.30572089876726e+001dB,8.96049725115837e+001°)
7.24435960074988e+000	(-7.28572187167212e+001dB,8.95957714411979e+001°)
7.41310241300916e+000	(-7.26572289042624e+001dB,8.95863560719379e+001°)
7.58577575029182e+000	(-7.24572395719020e+001dB,8.95767214136857e+001°)
7.76247116628690e+000	(-7.22572507422639e+001dB,8.95668623601985e+001°)
7.94328234724279e+000	(-7.20572624390380e+001dB,8.95567736864125e+001°)
8.12830516164097e+000	(-7.18572746870302e+001dB,8.95464500456831e+001°)
8.31763771102669e+000	(-7.16572875122155e+001dB,8.95358859669620e+001°)
8.51138038202374e+000	(-7.14573009417926e+001dB,8.95250758519096e+001°)
8.70963589956078e+000	(-7.12573150042416e+001dB,8.95140139719401e+001°)
8.91250938133743e+000	(-7.10573297293847e+001dB,8.95026944651987e+001°)
9.12010839355907e+000	(-7.08573451484488e+001dB,8.94911113334698e+001°)
9.33254300796988e+000	(-7.06573612941324e+001dB,8.94792584390129e+001°)
9.54992586021433e+000	(-7.04573782006743e+001dB,8.94671295013269e+001°)
9.77237220955808e+000	(-7.02573959039264e+001dB,8.94547180938392e+001°)
9.99999999999997e+000	(-7.00574144414297e+001dB,8.94420176405192e+001°)
1.02329299228075e+001	(-6.98574338524938e+001dB,8.94290214124135e+001°)
1.04712854805090e+001	(-6.96574541782802e+001dB,8.94157225241024e+001°)
1.07151930523760e+001	(-6.94574754618895e+001dB,8.94021139300743e+001°)
1.09647819614318e+001	(-6.92574977484526e+001dB,8.93881884210178e+001°)
1.12201845430196e+001	(-6.90575210852264e+001dB,8.93739386200281e+001°)
1.14815362149688e+001	(-6.88575455216941e+001dB,8.93593569787275e+001°)
1.17489755493953e+001	(-6.86575711096697e+001dB,8.93444357732967e+001°)
1.20226443461741e+001	(-6.84575979034078e+001dB,8.93291671004154e+001°)
1.23026877081238e+001	(-6.82576259597187e+001dB,8.93135428731107e+001°)
1.25892541179416e+001	(-6.80576553380886e+001dB,8.92975548165106e+001°)
1.28824955169313e+001	(-6.78576861008054e+001dB,8.92811944635011e+001°)
1.31825673855640e+001	(-6.76577183130908e+001dB,8.92644531502838e+001°)
1.34896288259165e+001	(-6.74577520432384e+001dB,8.92473220118339e+001°)
1.38038426460288e+001	(-6.72577873627580e+001dB,8.92297919772541e+001°)
1.41253754462275e+001	(-6.70578243465275e+001dB,8.92118537650232e+001°)
1.44543977074592e+001	(-6.68578630729508e+001dB,8.91934978781382e+001°)
1.47910838816820e+001	(-6.66579036241241e+001dB,8.91747145991455e+001°)
1.51356124843620e+001	(-6.64579460860095e+001dB,8.91554939850607e+001°)
1.54881661891248e+001	(-6.62579905486169e+001dB,8.91358258621738e+001°)
1.58489319246111e+001	(-6.60580371061945e+001dB,8.91156998207373e+001°)
1.62181009735892e+001	(-6.58580858574283e+001dB,8.90951052095355e+001°)
1.65958690743755e+001	(-6.56581369056504e+001dB,8.90740311303317e+001°)
1.69824365246174e+001	(-6.54581903590579e+001dB,8.90524664321915e+001°)
1.73780082874937e+001	(-6.52582463309418e+001dB,8.90303997056789e+001°)
1.77827941003892e+001	(-6.50583049399262e+001dB,8.90078192769238e+001°)
1.81970085860998e+001	(-6.48583663102191e+001dB,8.89847132015572e+001°)
1.86208713666286e+001	(-6.46584305718754e+001dB,8.89610692585117e+001°)
1.90546071796324e+001	(-6.44584978610712e+001dB,8.89368749436852e+001°)
1.94984459975804e+001	(-6.42585683203915e+001dB,8.89121174634646e+001°)
1.99526231496887e+001	(-6.40586420991322e+001dB,8.88867837281072e+001°)
2.04173794466952e+001	(-6.38587193536145e+001dB,8.88608603449766e+001°)
2.08929613085403e+001	(-6.36588002475155e+001dB,8.88343336116302e+001°)
2.13796208950222e+001	(-6.34588849522136e+001dB,8.88071895087569e+001°)
2.18776162394954e+001	(-6.32589736471505e+001dB,8.87794136929605e+001°)
2.23872113856833e+001	(-6.30590665202096e+001dB,8.87509914893866e+001°)
2.29086765276776e+001	(-6.28591637681125e+001dB,8.87219078841911e+001°)
2.34422881531991e+001	(-6.26592655968339e+001dB,8.86921475168460e+001°)
2.39883291901948e+001	(-6.24593722220362e+001dB,8.86616946722806e+001°)
2.45470891568502e+001	(-6.22594838695238e+001dB,8.86305332728552e+001°)
2.51188643150957e+001	(-6.20596007757191e+001dB,8.85986468701643e+001°)
2.57039578276885e+001	(-6.18597231881609e+001dB,8.85660186366667e+001°)
2.63026799189537e+001	(-6.16598513660252e+001dB,8.85326313571393e+001°)
2.69153480392690e+001	(-6.14599855806717e+001dB,8.84984674199523e+001°)
2.75422870333815e+001	(-6.12601261162141e+001dB,8.84635088081635e+001°)
2.81838293126444e+001	(-6.10602732701185e+001dB,8.84277370904272e+001°)
2.88403150312659e+001	(-6.08604273538289e+001dB,8.83911334117177e+001°)
2.95120922666637e+001	(-6.06605886934218e+001dB,8.83536784838625e+001°)
3.01995172040200e+001	(-6.04607576302916e+001dB,8.83153525758839e+001°)
3.09029543251358e+001	(-6.02609345218676e+001dB,8.82761355041468e+001°)
3.16227766016837e+001	(-6.00611197423649e+001dB,8.82360066223087e+001°)
3.23593656929627e+001	(-5.98613136835690e+001dB,8.81949448110718e+001°)
3.31131121482590e+001	(-5.96615167556583e+001dB,8.81529284677340e+001°)
3.38844156139201e+001	(-5.94617293880636e+001dB,8.81099354955360e+001°)
3.46736850452530e+001	(-5.92619520303678e+001dB,8.80659432928044e+001°)
3.54813389233574e+001	(-5.90621851532479e+001dB,8.80209287418874e+001°)
3.63078054770100e+001	(-5.88624292494593e+001dB,8.79748681978829e+001°)
3.71535229097171e+001	(-5.86626848348671e+001dB,8.79277374771567e+001°)
3.80189396320559e+001	(-5.84629524495235e+001dB,8.78795118456496e+001°)
3.89045144994279e+001	(-5.82632326587967e+001dB,8.78301660069742e+001°)
3.98107170553495e+001	(-5.80635260545499e+001dB,8.77796740902976e+001°)
4.07380277804111e+001	(-5.78638332563764e+001dB,8.77280096380134e+001°)
4.16869383470333e+001	(-5.76641549128901e+001dB,8.76751455931994e+001°)
4.26579518801591e+001	(-5.74644917030764e+001dB,8.76210542868639e+001°)
4.36515832240164e+001	(-5.72648443377044e+001dB,8.75657074249802e+001°)
4.46683592150961e+001	(-5.70652135608041e+001dB,8.75090760753102e+001°)
4.57088189614873e+001	(-5.68656001512114e+001dB,8.74511306540189e+001°)
4.67735141287196e+001	(-5.66660049241830e+001dB,8.73918409120820e+001°)
4.78630092322636e+001	(-5.64664287330863e+001dB,8.73311759214887e+001°)
4.89778819368444e+001	(-5.62668724711650e+001dB,8.72691040612429e+001°)
5.01187233627270e+001	(-5.60673370733861e+001dB,8.72055930031669e+001°)
5.12861383991362e+001	(-5.58678235183698e+001dB,8.71406096975109e+001°)
5.24807460249770e+001	(-5.56683328304080e+001dB,8.70741203583749e+001°)
5.37031796370250e+001	(-5.54688660815733e+001dB,8.70060904489476e+001°)
5.49540873857622e+001	(-5.52694243939238e+001dB,8.69364846665692e+001°)
5.62341325190346e+001	(-5.50700089418067e+001dB,8.68652669276261e+001°)
5.75439937337154e+001	(-5.48706209542665e+001dB,8.67924003522858e+001°)
5.88843655355586e+001	(-5.46712617175602e+001dB,8.67178472490818e+001°)
6.02559586074355e+001	(-5.44719325777857e+001dB,8.66415690993588e+001°)
6.16595001861479e+001	(-5.42726349436278e+001dB,8.65635265415904e+001°)
6.30957344480190e+001	(-5.40733702892258e+001dB,8.64836793555824e+001°)
6.45654229034652e+001	(-5.38741401571688e+001dB,8.64019864465772e+001°)
6.60693448007593e+001	(-5.36749461616243e+001dB,8.63184058292737e+001°)
6.76082975391978e+001	(-5.34757899916034e+001dB,8.62328946117823e+001°)
6.91830970918933e+001	(-5.32766734143717e+001dB,8.61454089795329e+001°)
7.07945784384134e+001	(-5.30775982790075e+001dB,8.60559041791587e+001°)
7.24435960074986e+001	(-5.28785665201176e+001dB,8.59643345023774e+001°)
7.41310241300914e+001	(-5.26795801617135e+001dB,8.58706532698975e+001°)
7.58577575029180e+001	(-5.24806413212561e+001dB,8.57748128153744e+001°)
7.76247116628688e+001	(-5.22817522138748e+001dB,8.56767644694491e+001°)
7.94328234724277e+001	(-5.20829151567686e+001dB,8.55764585439009e+001°)
8.12830516164095e+001	(-5.18841325737943e+001dB,8.54738443159490e+001°)
8.31763771102667e+001	(-5.16854070002513e+001dB,8.53688700127427e+001°)
8.51138038202372e+001	(-5.14867410878680e+001dB,8.52614827960802e+001°)
8.70963589956076e+001	(-5.12881376099985e+001dB,8.51516287474023e+001°)
8.91250938133741e+001	(-5.10895994670372e+001dB,8.50392528531071e+001°)
9.12010839355905e+001	(-5.08911296920580e+001dB,8.49242989902405e+001°)
9.33254300796986e+001	(-5.06927314566872e+001dB,8.48067099126162e+001°)
9.54992586021431e+001	(-5.04944080772170e+001dB,8.46864272374262e+001°)
9.77237220955805e+001	(-5.02961630209684e+001dB,8.45633914324071e+001°)
9.99999999999995e+001	(-5.00979999129109e+001dB,8.44375418036306e+001°)
1.02329299228075e+002	(-4.98999225425486e+001dB,8.43088164839938e+001°)
1.04712854805089e+002	(-4.97019348710786e+001dB,8.41771524224880e+001°)
1.07151930523760e+002	(-4.95040410388326e+001dB,8.40424853743316e+001°)
1.09647819614318e+002	(-4.93062453730077e+001dB,8.39047498920596e+001°)
1.12201845430196e+002	(-4.91085523956957e+001dB,8.37638793176646e+001°)
1.14815362149688e+002	(-4.89109668322190e+001dB,8.36198057758966e+001°)
1.17489755493952e+002	(-4.87134936197805e+001dB,8.34724601688292e+001°)
1.20226443461741e+002	(-4.85161379164351e+001dB,8.33217721718131e+001°)
1.23026877081237e+002	(-4.83189051103908e+001dB,8.31676702309406e+001°)
1.25892541179416e+002	(-4.81218008296462e+001dB,8.30100815621559e+001°)
1.28824955169313e+002	(-4.79248309519712e+001dB,8.28489321521524e+001°)
1.31825673855640e+002	(-4.77280016152370e+001dB,8.26841467612080e+001°)
1.34896288259165e+002	(-4.75313192281012e+001dB,8.25156489281169e+001°)
1.38038426460288e+002	(-4.73347904810529e+001dB,8.23433609773882e+001°)
1.41253754462275e+002	(-4.71384223578232e+001dB,8.21672040288883e+001°)
1.44543977074592e+002	(-4.69422221471626e+001dB,8.19870980101160e+001°)
1.47910838816820e+002	(-4.67461974549898e+001dB,8.18029616713093e+001°)
1.51356124843620e+002	(-4.65503562169119e+001dB,8.16147126035930e+001°)
1.54881661891247e+002	(-4.63547067111170e+001dB,8.14222672603867e+001°)
1.58489319246110e+002	(-4.61592575716382e+001dB,8.12255409823049e+001°)
1.62181009735892e+002	(-4.59640178019848e+001dB,8.10244480257918e+001°)
1.65958690743755e+002	(-4.57689967891382e+001dB,8.08189015957444e+001°)
1.69824365246173e+002	(-4.55742043179050e+001dB,8.06088138823885e+001°)
1.73780082874936e+002	(-4.53796505856184e+001dB,8.03940961026858e+001°)
1.77827941003891e+002	(-4.51853462171782e+001dB,8.01746585465592e+001°)
1.81970085860997e+002	(-4.49913022804158e+001dB,7.99504106282368e+001°)
1.86208713666286e+002	(-4.47975303017667e+001dB,7.97212609430238e+001°)
1.90546071796323e+002	(-4.46040422822336e+001dB,7.94871173298255e+001°)
1.94984459975803e+002	(-4.44108507136152e+001dB,7.92478869397515e+001°)
1.99526231496887e+002	(-4.42179685949765e+001dB,7.90034763111425e+001°)
2.04173794466952e+002	(-4.40254094493291e+001dB,7.87537914513706e+001°)
2.08929613085403e+002	(-4.38331873404890e+001dB,7.84987379257691e+001°)
2.13796208950222e+002	(-4.36413168900706e+001dB,7.82382209540583e+001°)
2.18776162394954e+002	(-4.34498132945764e+001dB,7.79721455146355e+001°)
2.23872113856832e+002	(-4.32586923425313e+001dB,7.77004164571035e+001°)
2.29086765276776e+002	(-4.30679704316084e+001dB,7.74229386234133e+001°)
2.34422881531991e+002	(-4.28776645856857e+001dB,7.71396169779948e+001°)
2.39883291901947e+002	(-4.26877924717680e+001dB,7.68503567472491e+001°)
2.45470891568501e+002	(-4.24983724167007e+001dB,7.65550635687691e+001°)
2.51188643150956e+002	(-4.23094234235960e+001dB,7.62536436506454e+001°)
2.57039578276885e+002	(-4.21209651878846e+001dB,7.59460039412059e+001°)
2.63026799189536e+002	(-4.19330181128987e+001dB,7.56320523095174e+001°)
2.69153480392690e+002	(-4.17456033248847e+001dB,7.53116977369601e+001°)
2.75422870333815e+002	(-4.15587426873343e+001dB,7.49848505201610e+001°)
2.81838293126443e+002	(-4.13724588145180e+001dB,7.46514224855405e+001°)
2.88403150312659e+002	(-4.11867750840915e+001dB,7.43113272156928e+001°)
2.95120922666637e+002	(-4.10017156486438e+001dB,7.39644802877795e+001°)
3.01995172040200e+002	(-4.08173054460398e+001dB,7.36107995240656e+001°)
3.09029543251357e+002	(-4.06335702084087e+001dB,7.32502052546761e+001°)
3.16227766016836e+002	(-4.04505364696168e+001dB,7.28826205925873e+001°)
3.23593656929626e+002	(-4.02682315710563e+001dB,7.25079717207972e+001°)
3.31131121482589e+002	(-4.00866836655757e+001dB,7.21261881915444e+001°)
3.38844156139200e+002	(-3.99059217193679e+001dB,7.17372032373579e+001°)
3.46736850452529e+002	(-3.97259755116269e+001dB,7.13409540936253e+001°)
3.54813389233573e+002	(-3.95468756317788e+001dB,7.09373823322675e+001°)
3.63078054770099e+002	(-3.93686534740855e+001dB,7.05264342059936e+001°)
3.71535229097170e+002	(-3.91913412294186e+001dB,7.01080610024927e+001°)
3.80189396320558e+002	(-3.90149718739980e+001dB,6.96822194077886e+001°)
3.89045144994278e+002	(-3.88395791548863e+001dB,6.92488718778503e+001°)
3.98107170553494e+002	(-3.86651975720353e+001dB,6.88079870174047e+001°)
4.07380277804110e+002	(-3.84918623566791e+001dB,6.83595399647485e+001°)
4.16869383470332e+002	(-3.83196094458776e+001dB,6.79035127812007e+001°)
4.26579518801589e+002	(-3.81484754530172e+001dB,6.74398948436715e+001°)
4.36515832240163e+002	(-3.79784976340888e+001dB,6.69686832386642e+001°)
4.46683592150960e+002	(-3.78097138495740e+001dB,6.64898831558516e+001°)
4.57088189614872e+002	(-3.76421625217860e+001dB,6.60035082792070e+001°)
4.67735141287195e+002	(-3.74758825875315e+001dB,6.55095811734996e+001°)
4.78630092322635e+002	(-3.73109134459798e+001dB,6.50081336638027e+001°)
4.89778819368443e+002	(-3.71472949016528e+001dB,6.44992072055061e+001°)
5.01187233627268e+002	(-3.69850671024767e+001dB,6.39828532421789e+001°)
5.12861383991361e+002	(-3.68242704728683e+001dB,6.34591335484915e+001°)
5.24807460249769e+002	(-3.66649456418657e+001dB,6.29281205552869e+001°)
