Freq.	V(line_2)
1.00000000000000e+000	(-1.24036409429352e+002dB,8.99283240373899e+001°)
1.02329299228075e+000	(-1.23836409749661e+002dB,8.99266544915493e+001°)
1.04712854805090e+000	(-1.23636410085067e+002dB,8.99249460571193e+001°)
1.07151930523761e+000	(-1.23436410436279e+002dB,8.99231978282774e+001°)
1.09647819614318e+000	(-1.23236410804044e+002dB,8.99214088781027e+001°)
1.12201845430196e+000	(-1.23036411189140e+002dB,8.99195782580841e+001°)
1.14815362149688e+000	(-1.22836411592386e+002dB,8.99177049976175e+001°)
1.17489755493953e+000	(-1.22636412014636e+002dB,8.99157881034915e+001°)
1.20226443461741e+000	(-1.22436412456786e+002dB,8.99138265593605e+001°)
1.23026877081238e+000	(-1.22236412919774e+002dB,8.99118193252065e+001°)
1.25892541179417e+000	(-1.22036413404582e+002dB,8.99097653367869e+001°)
1.28824955169313e+000	(-1.21836413912238e+002dB,8.99076635050710e+001°)
1.31825673855641e+000	(-1.21636414443819e+002dB,8.99055127156625e+001°)
1.34896288259165e+000	(-1.21436415000452e+002dB,8.99033118282086e+001°)
1.38038426460288e+000	(-1.21236415583319e+002dB,8.99010596757957e+001°)
1.41253754462275e+000	(-1.21036416193656e+002dB,8.98987550643306e+001°)
1.44543977074593e+000	(-1.20836416832756e+002dB,8.98963967719076e+001°)
1.47910838816821e+000	(-1.20636417501977e+002dB,8.98939835481609e+001°)
1.51356124843621e+000	(-1.20436418202736e+002dB,8.98915141136015e+001°)
1.54881661891248e+000	(-1.20236418936522e+002dB,8.98889871589393e+001°)
1.58489319246111e+000	(-1.20036419704889e+002dB,8.98864013443888e+001°)
1.62181009735893e+000	(-1.19836420509469e+002dB,8.98837552989591e+001°)
1.65958690743756e+000	(-1.19636421351966e+002dB,8.98810476197271e+001°)
1.69824365246174e+000	(-1.19436422234170e+002dB,8.98782768710937e+001°)
1.73780082874937e+000	(-1.19236423157950e+002dB,8.98754415840232e+001°)
1.77827941003892e+000	(-1.19036424125266e+002dB,8.98725402552645e+001°)
1.81970085860998e+000	(-1.18836425138171e+002dB,8.98695713465542e+001°)
1.86208713666287e+000	(-1.18636426198811e+002dB,8.98665332838015e+001°)
1.90546071796325e+000	(-1.18436427309438e+002dB,8.98634244562536e+001°)
1.94984459975804e+000	(-1.18236428472407e+002dB,8.98602432156422e+001°)
1.99526231496888e+000	(-1.18036429690185e+002dB,8.98569878753100e+001°)
2.04173794466953e+000	(-1.17836430965354e+002dB,8.98536567093166e+001°)
2.08929613085404e+000	(-1.17636432300620e+002dB,8.98502479515238e+001°)
2.13796208950223e+000	(-1.17436433698815e+002dB,8.98467597946597e+001°)
2.18776162394955e+000	(-1.17236435162904e+002dB,8.98431903893608e+001°)
2.23872113856834e+000	(-1.17036436695992e+002dB,8.98395378431920e+001°)
2.29086765276777e+000	(-1.16836438301333e+002dB,8.98358002196440e+001°)
2.34422881531992e+000	(-1.16636439982330e+002dB,8.98319755371064e+001°)
2.39883291901949e+000	(-1.16436441742549e+002dB,8.98280617678184e+001°)
2.45470891568503e+000	(-1.16236443585724e+002dB,8.98240568367940e+001°)
2.51188643150958e+000	(-1.16036445515765e+002dB,8.98199586207222e+001°)
2.57039578276886e+000	(-1.15836447536765e+002dB,8.98157649468426e+001°)
2.63026799189538e+000	(-1.15636449653010e+002dB,8.98114735917935e+001°)
2.69153480392691e+000	(-1.15436451868990e+002dB,8.98070822804345e+001°)
2.75422870333816e+000	(-1.15236454189405e+002dB,8.98025886846405e+001°)
2.81838293126445e+000	(-1.15036456619176e+002dB,8.97979904220689e+001°)
2.88403150312660e+000	(-1.14836459163457e+002dB,8.97932850548971e+001°)
2.95120922666638e+000	(-1.14636461827645e+002dB,8.97884700885310e+001°)
3.01995172040201e+000	(-1.14436464617390e+002dB,8.97835429702841e+001°)
3.09029543251359e+000	(-1.14236467538610e+002dB,8.97785010880246e+001°)
3.16227766016837e+000	(-1.14036470597501e+002dB,8.97733417687924e+001°)
3.23593656929628e+000	(-1.13836473800551e+002dB,8.97680622773829e+001°)
3.31131121482591e+000	(-1.13636477154553e+002dB,8.97626598148988e+001°)
3.38844156139202e+000	(-1.13436480666622e+002dB,8.97571315172674e+001°)
3.46736850452531e+000	(-1.13236484344206e+002dB,8.97514744537242e+001°)
3.54813389233575e+000	(-1.13036488195106e+002dB,8.97456856252605e+001°)
3.63078054770101e+000	(-1.12836492227490e+002dB,8.97397619630359e+001°)
3.71535229097172e+000	(-1.12636496449910e+002dB,8.97337003267531e+001°)
3.80189396320560e+000	(-1.12436500871323e+002dB,8.97274975029954e+001°)
3.89045144994280e+000	(-1.12236505501105e+002dB,8.97211502035255e+001°)
3.98107170553496e+000	(-1.12036510349077e+002dB,8.97146550635447e+001°)
4.07380277804112e+000	(-1.11836515425521e+002dB,8.97080086399119e+001°)
4.16869383470335e+000	(-1.11636520741204e+002dB,8.97012074093213e+001°)
4.26579518801592e+000	(-1.11436526307401e+002dB,8.96942477664375e+001°)
4.36515832240165e+000	(-1.11236532135916e+002dB,8.96871260219876e+001°)
4.46683592150962e+000	(-1.11036538239113e+002dB,8.96798384008093e+001°)
4.57088189614874e+000	(-1.10836544629936e+002dB,8.96723810398531e+001°)
4.67735141287197e+000	(-1.10636551321938e+002dB,8.96647499861387e+001°)
4.78630092322637e+000	(-1.10436558329314e+002dB,8.96569411946640e+001°)
4.89778819368445e+000	(-1.10236565666925e+002dB,8.96489505262654e+001°)
5.01187233627271e+000	(-1.10036573350334e+002dB,8.96407737454288e+001°)
5.12861383991364e+000	(-1.09836581395836e+002dB,8.96324065180498e+001°)
5.24807460249771e+000	(-1.09636589820495e+002dB,8.96238444091422e+001°)
5.37031796370252e+000	(-1.09436598642178e+002dB,8.96150828804928e+001°)
5.49540873857623e+000	(-1.09236607879596e+002dB,8.96061172882633e+001°)
5.62341325190348e+000	(-1.09036617552338e+002dB,8.95969428805351e+001°)
5.75439937337156e+000	(-1.08836627680920e+002dB,8.95875547947988e+001°)
5.88843655355588e+000	(-1.08636638286821e+002dB,8.95779480553846e+001°)
6.02559586074356e+000	(-1.08436649392536e+002dB,8.95681175708340e+001°)
6.16595001861481e+000	(-1.08236661021616e+002dB,8.95580581312102e+001°)
6.30957344480192e+000	(-1.08036673198725e+002dB,8.95477644053475e+001°)
6.45654229034654e+000	(-1.07836685949686e+002dB,8.95372309380356e+001°)
6.60693448007594e+000	(-1.07636699301542e+002dB,8.95264521471405e+001°)
6.76082975391980e+000	(-1.07436713282607e+002dB,8.95154223206581e+001°)
6.91830970918935e+000	(-1.07236727922531e+002dB,8.95041356137004e+001°)
7.07945784384136e+000	(-1.07036743252361e+002dB,8.94925860454117e+001°)
7.24435960074988e+000	(-1.06836759304606e+002dB,8.94807674958147e+001°)
7.41310241300916e+000	(-1.06636776113305e+002dB,8.94686737025832e+001°)
7.58577575029182e+000	(-1.06436793714105e+002dB,8.94562982577408e+001°)
7.76247116628690e+000	(-1.06236812144328e+002dB,8.94436346042845e+001°)
7.94328234724279e+000	(-1.06036831443058e+002dB,8.94306760327293e+001°)
8.12830516164097e+000	(-1.05836851651216e+002dB,8.94174156775750e+001°)
8.31763771102669e+000	(-1.05636872811655e+002dB,8.94038465136913e+001°)
8.51138038202374e+000	(-1.05436894969244e+002dB,8.93899613526198e+001°)
8.70963589956078e+000	(-1.05236918170967e+002dB,8.93757528387917e+001°)
8.91250938133743e+000	(-1.05036942466020e+002dB,8.93612134456592e+001°)
9.12010839355907e+000	(-1.04836967905918e+002dB,8.93463354717380e+001°)
9.33254300796988e+000	(-1.04636994544603e+002dB,8.93311110365594e+001°)
9.54992586021433e+000	(-1.04437022438554e+002dB,8.93155320765308e+001°)
9.77237220955808e+000	(-1.04237051646915e+002dB,8.92995903407009e+001°)
9.99999999999997e+000	(-1.04037082231613e+002dB,8.92832773864291e+001°)
1.02329299228075e+001	(-1.03837114257493e+002dB,8.92665845749561e+001°)
1.04712854805090e+001	(-1.03637147792453e+002dB,8.92495030668742e+001°)
1.07151930523760e+001	(-1.03437182907589e+002dB,8.92320238174943e+001°)
1.09647819614318e+001	(-1.03237219677346e+002dB,8.92141375721086e+001°)
1.12201845430196e+001	(-1.03037258179675e+002dB,8.91958348611456e+001°)
1.14815362149688e+001	(-1.02837298496197e+002dB,8.91771059952155e+001°)
1.17489755493953e+001	(-1.02637340712376e+002dB,8.91579410600445e+001°)
1.20226443461741e+001	(-1.02437384917704e+002dB,8.91383299112942e+001°)
1.23026877081238e+001	(-1.02237431205882e+002dB,8.91182621692648e+001°)
1.25892541179416e+001	(-1.02037479675025e+002dB,8.90977272134795e+001°)
1.28824955169313e+001	(-1.01837530427870e+002dB,8.90767141771472e+001°)
1.31825673855640e+001	(-1.01637583571986e+002dB,8.90552119415012e+001°)
1.34896288259165e+001	(-1.01437639220011e+002dB,8.90332091300125e+001°)
1.38038426460288e+001	(-1.01237697489882e+002dB,8.90106941024724e+001°)
1.41253754462275e+001	(-1.01037758505089e+002dB,8.89876549489452e+001°)
1.44543977074592e+001	(-1.00837822394936e+002dB,8.89640794835858e+001°)
1.47910838816820e+001	(-1.00637889294811e+002dB,8.89399552383206e+001°)
1.51356124843620e+001	(-1.00437959346475e+002dB,8.89152694563893e+001°)
1.54881661891248e+001	(-1.00238032698362e+002dB,8.88900090857440e+001°)
1.58489319246111e+001	(-1.00038109505889e+002dB,8.88641607723036e+001°)
1.62181009735892e+001	(-9.98381899317870e+001dB,8.88377108530607e+001°)
1.65958690743755e+001	(-9.96382741464447e+001dB,8.88106453490378e+001°)
1.69824365246174e+001	(-9.94383623282667e+001dB,8.87829499580903e+001°)
1.73780082874937e+001	(-9.92384546640508e+001dB,8.87546100475537e+001°)
1.77827941003892e+001	(-9.90385513493824e+001dB,8.87256106467319e+001°)
1.81970085860998e+001	(-9.88386525890462e+001dB,8.86959364392235e+001°)
1.86208713666286e+001	(-9.86387585974590e+001dB,8.86655717550844e+001°)
1.90546071796324e+001	(-9.84388695991211e+001dB,8.86345005628224e+001°)
1.94984459975804e+001	(-9.82389858290896e+001dB,8.86027064612222e+001°)
1.99526231496887e+001	(-9.80391075334738e+001dB,8.85701726709972e+001°)
2.04173794466952e+001	(-9.78392349699536e+001dB,8.85368820262660e+001°)
2.08929613085403e+001	(-9.76393684083218e+001dB,8.85028169658505e+001°)
2.13796208950222e+001	(-9.74395081310524e+001dB,8.84679595243920e+001°)
2.18776162394954e+001	(-9.72396544338946e+001dB,8.84322913232853e+001°)
2.23872113856833e+001	(-9.70398076264951e+001dB,8.83957935614242e+001°)
2.29086765276776e+001	(-9.68399680330489e+001dB,8.83584470057596e+001°)
2.34422881531991e+001	(-9.66401359929809e+001dB,8.83202319816655e+001°)
2.39883291901948e+001	(-9.64403118616587e+001dB,8.82811283631106e+001°)
2.45470891568502e+001	(-9.62404960111391e+001dB,8.82411155626343e+001°)
2.51188643150957e+001	(-9.60406888309486e+001dB,8.82001725211232e+001°)
2.57039578276885e+001	(-9.58408907289005e+001dB,8.81582776973879e+001°)
2.63026799189537e+001	(-9.56411021319503e+001dB,8.81154090575356e+001°)
2.69153480392690e+001	(-9.54413234870900e+001dB,8.80715440641393e+001°)
2.75422870333815e+001	(-9.52415552622844e+001dB,8.80266596651997e+001°)
2.81838293126444e+001	(-9.50417979474503e+001dB,8.79807322828993e+001°)
2.88403150312659e+001	(-9.48420520554814e+001dB,8.79337378021474e+001°)
2.95120922666637e+001	(-9.46423181233205e+001dB,8.78856515589139e+001°)
3.01995172040200e+001	(-9.44425967130807e+001dB,8.78364483283520e+001°)
3.09029543251358e+001	(-9.42428884132190e+001dB,8.77861023127092e+001°)
3.16227766016837e+001	(-9.40431938397636e+001dB,8.77345871290243e+001°)
3.23593656929627e+001	(-9.38435136375972e+001dB,8.76818757966133e+001°)
3.31131121482590e+001	(-9.36438484818008e+001dB,8.76279407243420e+001°)
3.38844156139201e+001	(-9.34441990790573e+001dB,8.75727536976868e+001°)
3.46736850452530e+001	(-9.32445661691207e+001dB,8.75162858655850e+001°)
3.54813389233574e+001	(-9.30449505263522e+001dB,8.74585077270759e+001°)
3.63078054770100e+001	(-9.28453529613266e+001dB,8.73993891177339e+001°)
3.71535229097171e+001	(-9.26457743225120e+001dB,8.73388991958971e+001°)
3.80189396320559e+001	(-9.24462154980259e+001dB,8.72770064286938e+001°)
3.89045144994279e+001	(-9.22466774174717e+001dB,8.72136785778707e+001°)
3.98107170553495e+001	(-9.20471610538582e+001dB,8.71488826854270e+001°)
4.07380277804111e+001	(-9.18476674256064e+001dB,8.70825850590592e+001°)
4.16869383470333e+001	(-9.16481975986469e+001dB,8.70147512574227e+001°)
4.26579518801591e+001	(-9.14487526886128e+001dB,8.69453460752167e+001°)
4.36515832240164e+001	(-9.12493338631300e+001dB,8.68743335280997e+001°)
4.46683592150961e+001	(-9.10499423442126e+001dB,8.68016768374437e+001°)
4.57088189614873e+001	(-9.08505794107638e+001dB,8.67273384149377e+001°)
4.67735141287196e+001	(-9.06512464011903e+001dB,8.66512798470494e+001°)
4.78630092322636e+001	(-9.04519447161328e+001dB,8.65734618793590e+001°)
4.89778819368444e+001	(-9.02526758213180e+001dB,8.64938444007758e+001°)
5.01187233627270e+001	(-9.00534412505381e+001dB,8.64123864276540e+001°)
5.12861383991362e+001	(-8.98542426087614e+001dB,8.63290460878227e+001°)
5.24807460249770e+001	(-8.96550815753808e+001dB,8.62437806045475e+001°)
5.37031796370250e+001	(-8.94559599076053e+001dB,8.61565462804439e+001°)
5.49540873857622e+001	(-8.92568794440001e+001dB,8.60672984813627e+001°)
5.62341325190346e+001	(-8.90578421081815e+001dB,8.59759916202700e+001°)
5.75439937337154e+001	(-8.88588499126727e+001dB,8.58825791411488e+001°)
5.88843655355586e+001	(-8.86599049629273e+001dB,8.57870135029477e+001°)
6.02559586074355e+001	(-8.84610094615256e+001dB,8.56892461636071e+001°)
6.16595001861479e+001	(-8.82621657125526e+001dB,8.55892275641954e+001°)
6.30957344480190e+001	(-8.80633761261621e+001dB,8.54869071131903e+001°)
6.45654229034652e+001	(-8.78646432233365e+001dB,8.53822331709427e+001°)
6.60693448007593e+001	(-8.76659696408471e+001dB,8.52751530343645e+001°)
6.76082975391978e+001	(-8.74673581364244e+001dB,8.51656129218847e+001°)
6.91830970918933e+001	(-8.72688115941441e+001dB,8.50535579587213e+001°)
7.07945784384134e+001	(-8.70703330300382e+001dB,8.49389321625211e+001°)
7.24435960074986e+001	(-8.68719255979376e+001dB,8.48216784294224e+001°)
7.41310241300914e+001	(-8.66735925955551e+001dB,8.47017385206004e+001°)
7.58577575029180e+001	(-8.64753374708161e+001dB,8.45790530493594e+001°)
7.76247116628688e+001	(-8.62771638284460e+001dB,8.44535614688412e+001°)
7.94328234724277e+001	(-8.60790754368216e+001dB,8.43252020604221e+001°)
8.12830516164095e+001	(-8.58810762350953e+001dB,8.41939119228795e+001°)
8.31763771102667e+001	(-8.56831703406003e+001dB,8.40596269624112e+001°)
8.51138038202372e+001	(-8.54853620565443e+001dB,8.39222818835983e+001°)
8.70963589956076e+001	(-8.52876558800013e+001dB,8.37818101814091e+001°)
8.91250938133741e+001	(-8.50900565102078e+001dB,8.36381441343458e+001°)
9.12010839355905e+001	(-8.48925688571731e+001dB,8.34912147988457e+001°)
9.33254300796986e+001	(-8.46951980506096e+001dB,8.33409520050525e+001°)
9.54992586021431e+001	(-8.44979494491922e+001dB,8.31872843540832e+001°)
9.77237220955805e+001	(-8.43008286501527e+001dB,8.30301392169236e+001°)
9.99999999999995e+001	(-8.41038414992175e+001dB,8.28694427350919e+001°)
1.02329299228075e+002	(-8.39069941008921e+001dB,8.27051198232214e+001°)
1.04712854805089e+002	(-8.37102928291025e+001dB,8.25370941737187e+001°)
1.07151930523760e+002	(-8.35137443381938e+001dB,8.23652882636675e+001°)
1.09647819614318e+002	(-8.33173555742947e+001dB,8.21896233641520e+001°)
1.12201845430196e+002	(-8.31211337870485e+001dB,8.20100195521901e+001°)
1.14815362149688e+002	(-8.29250865417147e+001dB,8.18263957254716e+001°)
1.17489755493952e+002	(-8.27292217316430e+001dB,8.16386696201110e+001°)
1.20226443461741e+002	(-8.25335475911183e+001dB,8.14467578316313e+001°)
1.23026877081237e+002	(-8.23380727085785e+001dB,8.12505758394119e+001°)
1.25892541179416e+002	(-8.21428060401992e+001dB,8.10500380348381e+001°)
1.28824955169313e+002	(-8.19477569238444e+001dB,8.08450577534074e+001°)
1.31825673855640e+002	(-8.17529350933746e+001dB,8.06355473110543e+001°)
1.34896288259165e+002	(-8.15583506933050e+001dB,8.04214180449709e+001°)
1.38038426460288e+002	(-8.13640142938037e+001dB,8.02025803592087e+001°)
1.41253754462275e+002	(-8.11699369060162e+001dB,7.99789437753597e+001°)
1.44543977074592e+002	(-8.09761299977005e+001dB,7.97504169886279e+001°)
1.47910838816820e+002	(-8.07826055091543e+001dB,7.95169079296085e+001°)
1.51356124843620e+002	(-8.05893758694121e+001dB,7.92783238321072e+001°)
1.54881661891247e+002	(-8.03964540126864e+001dB,7.90345713073385e+001°)
1.58489319246110e+002	(-8.02038533950235e+001dB,7.87855564248526e+001°)
1.62181009735892e+002	(-8.00115880111406e+001dB,7.85311848005467e+001°)
1.65958690743755e+002	(-7.98196724114054e+001dB,7.82713616921253e+001°)
1.69824365246173e+002	(-7.96281217189160e+001dB,7.80059921023792e+001°)
1.73780082874936e+002	(-7.94369516466327e+001dB,7.77349808906543e+001°)
1.77827941003891e+002	(-7.92461785145074e+001dB,7.74582328928882e+001°)
1.81970085860997e+002	(-7.90558192665535e+001dB,7.71756530505871e+001°)
1.86208713666286e+002	(-7.88658914877882e+001dB,7.68871465491181e+001°)
1.90546071796323e+002	(-7.86764134209764e+001dB,7.65926189656834e+001°)
1.94984459975803e+002	(-7.84874039830984e+001dB,7.62919764273360e+001°)
1.99526231496887e+002	(-7.82988827814534e+001dB,7.59851257793854e+001°)
2.04173794466952e+002	(-7.81108701293075e+001dB,7.56719747645249e+001°)
2.08929613085403e+002	(-7.79233870609835e+001dB,7.53524322129948e+001°)
2.13796208950222e+002	(-7.77364553462850e+001dB,7.50264082440689e+001°)
2.18776162394954e+002	(-7.75500975041364e+001dB,7.46938144791244e+001°)
2.23872113856832e+002	(-7.73643368153145e+001dB,7.43545642665203e+001°)
2.29086765276776e+002	(-7.71791973341364e+001dB,7.40085729184681e+001°)
2.34422881531991e+002	(-7.69947038989635e+001dB,7.36557579600322e+001°)
2.39883291901947e+002	(-7.68108821413683e+001dB,7.32960393903441e+001°)
2.45470891568501e+002	(-7.66277584938078e+001dB,7.29293399560529e+001°)
2.51188643150956e+002	(-7.64453601956339e+001dB,7.25555854369660e+001°)
2.57039578276885e+002	(-7.62637152972679e+001dB,7.21747049437602e+001°)
2.63026799189536e+002	(-7.60828526623567e+001dB,7.17866312275544e+001°)
2.69153480392690e+002	(-7.59028019677210e+001dB,7.13913010010476e+001°)
2.75422870333815e+002	(-7.57235937009031e+001dB,7.09886552708193e+001°)
2.81838293126443e+002	(-7.55452591551128e+001dB,7.05786396802846e+001°)
2.88403150312659e+002	(-7.53678304213697e+001dB,7.01612048626726e+001°)
2.95120922666637e+002	(-7.51913403776351e+001dB,6.97363068032737e+001°)
3.01995172040200e+002	(-7.50158226747273e+001dB,6.93039072100647e+001°)
3.09029543251357e+002	(-7.48413117188136e+001dB,6.88639738916761e+001°)
3.16227766016836e+002	(-7.46678426502752e+001dB,6.84164811415201e+001°)
3.23593656929626e+002	(-7.44954513187464e+001dB,6.79614101267382e+001°)
3.31131121482589e+002	(-7.43241742541352e+001dB,6.74987492804672e+001°)
3.38844156139200e+002	(-7.41540486334431e+001dB,6.70284946957583e+001°)
3.46736850452529e+002	(-7.39851122432134e+001dB,6.65506505193161e+001°)
3.54813389233573e+002	(-7.38174034374536e+001dB,6.60652293430543e+001°)
3.63078054770099e+002	(-7.36509610908928e+001dB,6.55722525913021e+001°)
3.71535229097170e+002	(-7.34858245474608e+001dB,6.50717509013275e+001°)
3.80189396320558e+002	(-7.33220335638969e+001dB,6.45637644946902e+001°)
3.89045144994278e+002	(-7.31596282484259e+001dB,6.40483435367870e+001°)
3.98107170553494e+002	(-7.29986489944712e+001dB,6.35255484818146e+001°)
4.07380277804110e+002	(-7.28391364094075e+001dB,6.29954504002551e+001°)
4.16869383470332e+002	(-7.26811312383982e+001dB,6.24581312858826e+001°)
4.26579518801589e+002	(-7.25246742833986e+001dB,6.19136843392085e+001°)
4.36515832240163e+002	(-7.23698063174558e+001dB,6.13622142242230e+001°)
4.46683592150960e+002	(-7.22165679944798e+001dB,6.08038372952613e+001°)
4.57088189614872e+002	(-7.20649997547107e+001dB,6.02386817908200e+001°)
4.67735141287195e+002	(-7.19151417261585e+001dB,5.96668879911889e+001°)
4.78630092322635e+002	(-7.17670336223435e+001dB,5.90886083368292e+001°)
4.89778819368443e+002	(-7.16207146367192e+001dB,5.85040075045435e+001°)
5.01187233627268e+002	(-7.14762233342120e+001dB,5.79132624386321e+001°)
5.12861383991361e+002	(-7.13335975403639e+001dB,5.73165623344254e+001°)
5.24807460249769e+002	(-7.11928742286154e+001dB,5.67141085718191e+001°)
