Freq.	V(line_2)
1.00000000000000e+000	(-1.04036408887595e+002dB,8.99312400330096e+001°)
1.02329299228075e+000	(-1.03836409182373e+002dB,8.99296384092212e+001°)
1.04712854805090e+000	(-1.03636409491042e+002dB,8.99279994789361e+001°)
1.07151930523761e+000	(-1.03436409814259e+002dB,8.99263223731826e+001°)
1.09647819614318e+000	(-1.03236410152709e+002dB,8.99246062027484e+001°)
1.12201845430196e+000	(-1.03036410507109e+002dB,8.99228500577095e+001°)
1.14815362149688e+000	(-1.02836410878212e+002dB,8.99210530069480e+001°)
1.17489755493953e+000	(-1.02636411266804e+002dB,8.99192140976577e+001°)
1.20226443461741e+000	(-1.02436411673710e+002dB,8.99173323548399e+001°)
1.23026877081238e+000	(-1.02236412099793e+002dB,8.99154067807857e+001°)
1.25892541179417e+000	(-1.02036412545956e+002dB,8.99134363545479e+001°)
1.28824955169313e+000	(-1.01836413013146e+002dB,8.99114200313989e+001°)
1.31825673855641e+000	(-1.01636413502355e+002dB,8.99093567422775e+001°)
1.34896288259165e+000	(-1.01436414014618e+002dB,8.99072453932220e+001°)
1.38038426460288e+000	(-1.01236414551024e+002dB,8.99050848647900e+001°)
1.41253754462275e+000	(-1.01036415112710e+002dB,8.99028740114655e+001°)
1.44543977074593e+000	(-1.00836415700868e+002dB,8.99006116610509e+001°)
1.47910838816821e+000	(-1.00636416316744e+002dB,8.98982966140465e+001°)
1.51356124843621e+000	(-1.00436416961646e+002dB,8.98959276430140e+001°)
1.54881661891248e+000	(-1.00236417636941e+002dB,8.98935034919259e+001°)
1.58489319246111e+000	(-1.00036418344061e+002dB,8.98910228754999e+001°)
1.62181009735893e+000	(-9.98364190845066e+001dB,8.98884844785177e+001°)
1.65958690743756e+000	(-9.96364198598483e+001dB,8.98858869551275e+001°)
1.69824365246174e+000	(-9.94364206717306e+001dB,8.98832289281307e+001°)
1.73780082874937e+000	(-9.92364215218756e+001dB,8.98805089882519e+001°)
1.77827941003892e+000	(-9.90364224120865e+001dB,8.98777256933922e+001°)
1.81970085860998e+000	(-9.88364233442516e+001dB,8.98748775678643e+001°)
1.86208713666287e+000	(-9.86364243203480e+001dB,8.98719631016107e+001°)
1.90546071796325e+000	(-9.84364253424462e+001dB,8.98689807494032e+001°)
1.94984459975804e+000	(-9.82364264127141e+001dB,8.98659289300238e+001°)
1.99526231496888e+000	(-9.80364275334220e+001dB,8.98628060254269e+001°)
2.04173794466953e+000	(-9.78364287069468e+001dB,8.98596103798813e+001°)
2.08929613085404e+000	(-9.76364299357779e+001dB,8.98563402990930e+001°)
2.13796208950223e+000	(-9.74364312225216e+001dB,8.98529940493073e+001°)
2.18776162394955e+000	(-9.72364325699072e+001dB,8.98495698563894e+001°)
2.23872113856834e+000	(-9.70364339807927e+001dB,8.98460659048850e+001°)
2.29086765276777e+000	(-9.68364354581708e+001dB,8.98424803370573e+001°)
2.34422881531992e+000	(-9.66364370051749e+001dB,8.98388112519034e+001°)
2.39883291901949e+000	(-9.64364386250866e+001dB,8.98350567041461e+001°)
2.45470891568503e+000	(-9.62364403213416e+001dB,8.98312147032036e+001°)
2.51188643150958e+000	(-9.60364420975380e+001dB,8.98272832121344e+001°)
2.57039578276886e+000	(-9.58364439574432e+001dB,8.98232601465581e+001°)
2.63026799189538e+000	(-9.56364459050022e+001dB,8.98191433735508e+001°)
2.69153480392691e+000	(-9.54364479443458e+001dB,8.98149307105151e+001°)
2.75422870333816e+000	(-9.52364500797997e+001dB,8.98106199240236e+001°)
2.81838293126445e+000	(-9.50364523158934e+001dB,8.98062087286355e+001°)
2.88403150312660e+000	(-9.48364546573696e+001dB,8.98016947856860e+001°)
2.95120922666638e+000	(-9.46364571091949e+001dB,8.97970757020470e+001°)
3.01995172040201e+000	(-9.44364596765696e+001dB,8.97923490288596e+001°)
3.09029543251359e+000	(-9.42364623649394e+001dB,8.97875122602365e+001°)
3.16227766016837e+000	(-9.40364651800064e+001dB,8.97825628319350e+001°)
3.23593656929628e+000	(-9.38364681277414e+001dB,8.97774981199982e+001°)
3.31131121482591e+000	(-9.36364712143967e+001dB,8.97723154393656e+001°)
3.38844156139202e+000	(-9.34364744465193e+001dB,8.97670120424508e+001°)
3.46736850452531e+000	(-9.32364778309645e+001dB,8.97615851176863e+001°)
3.54813389233575e+000	(-9.30364813749110e+001dB,8.97560317880344e+001°)
3.63078054770101e+000	(-9.28364850858753e+001dB,8.97503491094639e+001°)
3.71535229097172e+000	(-9.26364889717286e+001dB,8.97445340693907e+001°)
3.80189396320560e+000	(-9.24364930407128e+001dB,8.97385835850832e+001°)
3.89045144994280e+000	(-9.22364973014583e+001dB,8.97324945020296e+001°)
3.98107170553496e+000	(-9.20365017630020e+001dB,8.97262635922678e+001°)
4.07380277804112e+000	(-9.18365064348069e+001dB,8.97198875526770e+001°)
4.16869383470335e+000	(-9.16365113267818e+001dB,8.97133630032286e+001°)
4.26579518801592e+000	(-9.14365164493024e+001dB,8.97066864851973e+001°)
4.36515832240165e+000	(-9.12365218132335e+001dB,8.96998544593306e+001°)
4.46683592150962e+000	(-9.10365274299519e+001dB,8.96928633039755e+001°)
4.57088189614874e+000	(-9.08365333113702e+001dB,8.96857093131622e+001°)
4.67735141287197e+000	(-9.06365394699626e+001dB,8.96783886946427e+001°)
4.78630092322637e+000	(-9.04365459187913e+001dB,8.96708975678848e+001°)
4.89778819368445e+000	(-9.02365526715336e+001dB,8.96632319620191e+001°)
5.01187233627271e+000	(-9.00365597425115e+001dB,8.96553878137380e+001°)
5.12861383991364e+000	(-8.98365671467221e+001dB,8.96473609651473e+001°)
5.24807460249771e+000	(-8.96365748998689e+001dB,8.96391471615666e+001°)
5.37031796370252e+000	(-8.94365830183953e+001dB,8.96307420492798e+001°)
5.49540873857623e+000	(-8.92365915195199e+001dB,8.96221411732329e+001°)
5.62341325190348e+000	(-8.90366004212722e+001dB,8.96133399746790e+001°)
5.75439937337156e+000	(-8.88366097425317e+001dB,8.96043337887685e+001°)
5.88843655355588e+000	(-8.86366195030672e+001dB,8.95951178420836e+001°)
6.02559586074356e+000	(-8.84366297235790e+001dB,8.95856872501160e+001°)
6.16595001861481e+000	(-8.82366404257429e+001dB,8.95760370146861e+001°)
6.30957344480192e+000	(-8.80366516322560e+001dB,8.95661620213025e+001°)
6.45654229034654e+000	(-8.78366633668848e+001dB,8.95560570364613e+001°)
6.60693448007594e+000	(-8.76366756545156e+001dB,8.95457167048816e+001°)
6.76082975391980e+000	(-8.74366885212074e+001dB,8.95351355466785e+001°)
6.91830970918935e+000	(-8.72367019942468e+001dB,8.95243079544707e+001°)
7.07945784384136e+000	(-8.70367161022062e+001dB,8.95132281904205e+001°)
7.24435960074988e+000	(-8.68367308750041e+001dB,8.95018903832070e+001°)
7.41310241300916e+000	(-8.66367463439687e+001dB,8.94902885249284e+001°)
7.58577575029182e+000	(-8.64367625419040e+001dB,8.94784164679338e+001°)
7.76247116628690e+000	(-8.62367795031598e+001dB,8.94662679215814e+001°)
7.94328234724279e+000	(-8.60367972637040e+001dB,8.94538364489231e+001°)
8.12830516164097e+000	(-8.58368158611989e+001dB,8.94411154633119e+001°)
8.31763771102669e+000	(-8.56368353350815e+001dB,8.94280982249325e+001°)
8.51138038202374e+000	(-8.54368557266462e+001dB,8.94147778372509e+001°)
8.70963589956078e+000	(-8.52368770791332e+001dB,8.94011472433845e+001°)
8.91250938133743e+000	(-8.50368994378194e+001dB,8.93871992223868e+001°)
9.12010839355907e+000	(-8.48369228501146e+001dB,8.93729263854490e+001°)
9.33254300796988e+000	(-8.46369473656620e+001dB,8.93583211720138e+001°)
9.54992586021433e+000	(-8.44369730364432e+001dB,8.93433758458003e+001°)
9.77237220955808e+000	(-8.42369999168885e+001dB,8.93280824907383e+001°)
9.99999999999997e+000	(-8.40370280639918e+001dB,8.93124330068104e+001°)
1.02329299228075e+001	(-8.38370575374317e+001dB,8.92964191057983e+001°)
1.04712854805090e+001	(-8.36370883996976e+001dB,8.92800323069332e+001°)
1.07151930523760e+001	(-8.34371207162222e+001dB,8.92632639324469e+001°)
1.09647819614318e+001	(-8.32371545555200e+001dB,8.92461051030217e+001°)
1.12201845430196e+001	(-8.30371899893322e+001dB,8.92285467331378e+001°)
1.14815362149688e+001	(-8.28372270927786e+001dB,8.92105795263142e+001°)
1.17489755493953e+001	(-8.26372659445169e+001dB,8.91921939702427e+001°)
1.20226443461741e+001	(-8.24373066269086e+001dB,8.91733803318120e+001°)
1.23026877081238e+001	(-8.22373492261939e+001dB,8.91541286520194e+001°)
1.25892541179416e+001	(-8.20373938326739e+001dB,8.91344287407672e+001°)
1.28824955169313e+001	(-8.18374405409014e+001dB,8.91142701715437e+001°)
1.31825673855640e+001	(-8.16374894498815e+001dB,8.90936422759830e+001°)
1.34896288259165e+001	(-8.14375406632804e+001dB,8.90725341383039e+001°)
1.38038426460288e+001	(-8.12375942896453e+001dB,8.90509345896245e+001°)
1.41253754462275e+001	(-8.10376504426331e+001dB,8.90288322021496e+001°)
1.44543977074592e+001	(-8.08377092412515e+001dB,8.90062152832284e+001°)
1.47910838816820e+001	(-8.06377708101102e+001dB,8.89830718692804e+001°)
1.51356124843620e+001	(-8.04378352796844e+001dB,8.89593897195870e+001°)
1.54881661891248e+001	(-8.02379027865902e+001dB,8.89351563099449e+001°)
1.58489319246111e+001	(-8.00379734738738e+001dB,8.89103588261801e+001°)
1.62181009735892e+001	(-7.98380474913133e+001dB,8.88849841575192e+001°)
1.65958690743755e+001	(-7.96381249957353e+001dB,8.88590188898147e+001°)
1.69824365246174e+001	(-7.94382061513457e+001dB,8.88324492986227e+001°)
1.73780082874937e+001	(-7.92382911300768e+001dB,8.88052613421292e+001°)
1.77827941003892e+001	(-7.90383801119499e+001dB,8.87774406539229e+001°)
1.81970085860998e+001	(-7.88384732854555e+001dB,8.87489725356112e+001°)
1.86208713666286e+001	(-7.86385708479508e+001dB,8.87198419492770e+001°)
1.90546071796324e+001	(-7.84386730060757e+001dB,8.86900335097736e+001°)
1.94984459975804e+001	(-7.82387799761893e+001dB,8.86595314768537e+001°)
1.99526231496887e+001	(-7.80388919848251e+001dB,8.86283197471315e+001°)
2.04173794466952e+001	(-7.78390092691691e+001dB,8.85963818458739e+001°)
2.08929613085403e+001	(-7.76391320775593e+001dB,8.85637009186178e+001°)
2.13796208950222e+001	(-7.74392606700087e+001dB,8.85302597226125e+001°)
2.18776162394954e+001	(-7.72393953187526e+001dB,8.84960406180813e+001°)
2.23872113856833e+001	(-7.70395363088220e+001dB,8.84610255593031e+001°)
2.29086765276776e+001	(-7.68396839386431e+001dB,8.84251960855089e+001°)
2.34422881531991e+001	(-7.66398385206649e+001dB,8.83885333115914e+001°)
2.39883291901948e+001	(-7.64400003820158e+001dB,8.83510179186252e+001°)
2.45470891568502e+001	(-7.62401698651916e+001dB,8.83126301441946e+001°)
2.51188643150957e+001	(-7.60403473287748e+001dB,8.82733497725280e+001°)
2.57039578276885e+001	(-7.58405331481871e+001dB,8.82331561244335e+001°)
2.63026799189537e+001	(-7.56407277164773e+001dB,8.81920280470379e+001°)
2.69153480392690e+001	(-7.54409314451463e+001dB,8.81499439033223e+001°)
2.75422870333815e+001	(-7.52411447650089e+001dB,8.81068815614557e+001°)
2.81838293126444e+001	(-7.50413681270972e+001dB,8.80628183839235e+001°)
2.88403150312659e+001	(-7.48416020036044e+001dB,8.80177312164485e+001°)
2.95120922666637e+001	(-7.46418468888735e+001dB,8.79715963767045e+001°)
3.01995172040200e+001	(-7.44421033004308e+001dB,8.79243896428193e+001°)
3.09029543251358e+001	(-7.42423717800677e+001dB,8.78760862416681e+001°)
3.16227766016837e+001	(-7.40426528949721e+001dB,8.78266608369538e+001°)
3.23593656929627e+001	(-7.38429472389123e+001dB,8.77760875170763e+001°)
3.31131121482590e+001	(-7.36432554334748e+001dB,8.77243397827885e+001°)
3.38844156139201e+001	(-7.34435781293600e+001dB,8.76713905346398e+001°)
3.46736850452530e+001	(-7.32439160077367e+001dB,8.76172120602072e+001°)
3.54813389233574e+001	(-7.30442697816587e+001dB,8.75617760211149e+001°)
3.63078054770100e+001	(-7.28446401975471e+001dB,8.75050534398433e+001°)
3.71535229097171e+001	(-7.26450280367397e+001dB,8.74470146863290e+001°)
3.80189396320559e+001	(-7.24454341171115e+001dB,8.73876294643576e+001°)
3.89045144994279e+001	(-7.22458592947693e+001dB,8.73268667977529e+001°)
3.98107170553495e+001	(-7.20463044658232e+001dB,8.72646950163633e+001°)
4.07380277804111e+001	(-7.18467705682391e+001dB,8.72010817418522e+001°)
4.16869383470333e+001	(-7.16472585837751e+001dB,8.71359938732944e+001°)
4.26579518801591e+001	(-7.14477695400059e+001dB,8.70693975725843e+001°)
4.36515832240164e+001	(-7.12483045124383e+001dB,8.70012582496625e+001°)
4.46683592150961e+001	(-7.10488646267229e+001dB,8.69315405475668e+001°)
4.57088189614873e+001	(-7.08494510609653e+001dB,8.68602083273152e+001°)
4.67735141287196e+001	(-7.06500650481409e+001dB,8.67872246526300e+001°)
4.78630092322636e+001	(-7.04507078786185e+001dB,8.67125517745124e+001°)
4.89778819368444e+001	(-7.02513809027967e+001dB,8.66361511156783e+001°)
5.01187233627270e+001	(-7.00520855338578e+001dB,8.65579832548678e+001°)
5.12861383991362e+001	(-6.98528232506449e+001dB,8.64780079110410e+001°)
5.24807460249770e+001	(-6.96535956006661e+001dB,8.63961839274757e+001°)
5.37031796370250e+001	(-6.94544042032319e+001dB,8.63124692557825e+001°)
5.49540873857622e+001	(-6.92552507527316e+001dB,8.62268209398553e+001°)
5.62341325190346e+001	(-6.90561370220533e+001dB,8.61391950997776e+001°)
5.75439937337154e+001	(-6.88570648661537e+001dB,8.60495469157047e+001°)
5.88843655355586e+001	(-6.86580362257843e+001dB,8.59578306117464e+001°)
6.02559586074355e+001	(-6.84590531313798e+001dB,8.58639994398750e+001°)
6.16595001861479e+001	(-6.82601177071145e+001dB,8.57680056638873e+001°)
6.30957344480190e+001	(-6.80612321751340e+001dB,8.56698005434493e+001°)
6.45654229034652e+001	(-6.78623988599692e+001dB,8.55693343182584e+001°)
6.60693448007593e+001	(-6.76636201931381e+001dB,8.54665561923574e+001°)
6.76082975391978e+001	(-6.74648987179445e+001dB,8.53614143186386e+001°)
6.91830970918933e+001	(-6.72662370944788e+001dB,8.52538557835811e+001°)
7.07945784384134e+001	(-6.70676381048301e+001dB,8.51438265922647e+001°)
7.24435960074986e+001	(-6.68691046585157e+001dB,8.50312716537100e+001°)
7.41310241300914e+001	(-6.66706397981370e+001dB,8.49161347665966e+001°)
7.58577575029180e+001	(-6.64722467052688e+001dB,8.47983586054156e+001°)
7.76247116628688e+001	(-6.62739287065900e+001dB,8.46778847071170e+001°)
7.94328234724277e+001	(-6.60756892802642e+001dB,8.45546534583176e+001°)
8.12830516164095e+001	(-6.58775320625783e+001dB,8.44286040831381e+001°)
8.31763771102667e+001	(-6.56794608548465e+001dB,8.42996746317449e+001°)
8.51138038202372e+001	(-6.54814796305894e+001dB,8.41678019696772e+001°)
8.70963589956076e+001	(-6.52835925429947e+001dB,8.40329217680440e+001°)
8.91250938133741e+001	(-6.50858039326691e+001dB,8.38949684946837e+001°)
9.12010839355905e+001	(-6.48881183356891e+001dB,8.37538754063831e+001°)
9.33254300796986e+001	(-6.46905404919583e+001dB,8.36095745422627e+001°)
9.54992586021431e+001	(-6.44930753538794e+001dB,8.34619967184360e+001°)
9.77237220955805e+001	(-6.42957280953492e+001dB,8.33110715240645e+001°)
9.99999999999995e+001	(-6.40985041210828e+001dB,8.31567273189340e+001°)
1.02329299228075e+002	(-6.39014090762749e+001dB,8.29988912326851e+001°)
1.04712854805089e+002	(-6.37044488566047e+001dB,8.28374891658414e+001°)
1.07151930523760e+002	(-6.35076296185910e+001dB,8.26724457927866e+001°)
1.09647819614318e+002	(-6.33109577903019e+001dB,8.25036845668502e+001°)
1.12201845430196e+002	(-6.31144400824262e+001dB,8.23311277276710e+001°)
1.14815362149688e+002	(-6.29180834997087e+001dB,8.21546963110186e+001°)
1.17489755493952e+002	(-6.27218953527538e+001dB,8.19743101612599e+001°)
1.20226443461741e+002	(-6.25258832702008e+001dB,8.17898879466729e+001°)
1.23026877081237e+002	(-6.23300552112696e+001dB,8.16013471778155e+001°)
1.25892541179416e+002	(-6.21344194786801e+001dB,8.14086042291706e+001°)
1.28824955169313e+002	(-6.19389847319411e+001dB,8.12115743643011e+001°)
1.31825673855640e+002	(-6.17437600010085e+001dB,8.10101717647550e+001°)
1.34896288259165e+002	(-6.15487547003055e+001dB,8.08043095629788e+001°)
1.38038426460288e+002	(-6.13539786431007e+001dB,8.05938998795023e+001°)
1.41253754462275e+002	(-6.11594420562338e+001dB,8.03788538646738e+001°)
1.44543977074592e+002	(-6.09651555951790e+001dB,8.01590817452353e+001°)
1.47910838816820e+002	(-6.07711303594316e+001dB,7.99344928760363e+001°)
1.51356124843620e+002	(-6.05773779082023e+001dB,7.97049957971994e+001°)
1.54881661891247e+002	(-6.03839102763987e+001dB,7.94704982970585e+001°)
1.58489319246110e+002	(-6.01907399908731e+001dB,7.92309074812029e+001°)
1.62181009735892e+002	(-5.99978800869078e+001dB,7.89861298479674e+001°)
1.65958690743755e+002	(-5.98053441249092e+001dB,7.87360713707213e+001°)
1.69824365246173e+002	(-5.96131462072766e+001dB,7.84806375873124e+001°)
1.73780082874936e+002	(-5.94213009954041e+001dB,7.82197336970321e+001°)
1.77827941003891e+002	(-5.92298237267756e+001dB,7.79532646654717e+001°)
1.81970085860997e+002	(-5.90387302320997e+001dB,7.76811353376428e+001°)
1.86208713666286e+002	(-5.88480369524330e+001dB,7.74032505597382e+001°)
1.90546071796323e+002	(-5.86577609562299e+001dB,7.71195153099080e+001°)
1.94984459975803e+002	(-5.84679199562518e+001dB,7.68298348384221e+001°)
1.99526231496887e+002	(-5.82785323262636e+001dB,7.65341148175871e+001°)
2.04173794466952e+002	(-5.80896171174366e+001dB,7.62322615017732e+001°)
2.08929613085403e+002	(-5.79011940743704e+001dB,7.59241818978982e+001°)
2.13796208950222e+002	(-5.77132836506396e+001dB,7.56097839466963e+001°)
2.18776162394954e+002	(-5.75259070237618e+001dB,7.52889767150809e+001°)
2.23872113856832e+002	(-5.73390861094771e+001dB,7.49616705998841e+001°)
2.29086765276776e+002	(-5.71528435752207e+001dB,7.46277775432280e+001°)
2.34422881531991e+002	(-5.69672028526594e+001dB,7.42872112597419e+001°)
2.39883291901947e+002	(-5.67821881491601e+001dB,7.39398874758044e+001°)
2.45470891568501e+002	(-5.65978244580423e+001dB,7.35857241809353e+001°)
2.51188643150956e+002	(-5.64141375674656e+001dB,7.32246418914108e+001°)
2.57039578276885e+002	(-5.62311540677894e+001dB,7.28565639261121e+001°)
2.63026799189536e+002	(-5.60489013572380e+001dB,7.24814166945460e+001°)
2.69153480392690e+002	(-5.58674076456929e+001dB,7.20991299969029e+001°)
2.75422870333815e+002	(-5.56867019564312e+001dB,7.17096373359253e+001°)
2.81838293126443e+002	(-5.55068141256181e+001dB,7.13128762402707e+001°)
2.88403150312659e+002	(-5.53277747993605e+001dB,7.09087885989465e+001°)
2.95120922666637e+002	(-5.51496154281181e+001dB,7.04973210062854e+001°)
3.01995172040200e+002	(-5.49723682582724e+001dB,7.00784251168060e+001°)
3.09029543251357e+002	(-5.47960663206427e+001dB,6.96520580091786e+001°)
3.16227766016836e+002	(-5.46207434157468e+001dB,6.92181825583773e+001°)
3.23593656929626e+002	(-5.44464340955968e+001dB,6.87767678149539e+001°)
3.31131121482589e+002	(-5.42731736418289e+001dB,6.83277893902225e+001°)
3.38844156139200e+002	(-5.41009980399691e+001dB,6.78712298459816e+001°)
3.46736850452529e+002	(-5.39299439496437e+001dB,6.74070790872410e+001°)
3.54813389233573e+002	(-5.37600486705542e+001dB,6.69353347562557e+001°)
3.63078054770099e+002	(-5.35913501040495e+001dB,6.64560026259992e+001°)
3.71535229097170e+002	(-5.34238867101429e+001dB,6.59690969910426e+001°)
3.80189396320558e+002	(-5.32576974598404e+001dB,6.54746410536376e+001°)
3.89045144994278e+002	(-5.30928217826706e+001dB,6.49726673026428e+001°)
3.98107170553494e+002	(-5.29292995093298e+001dB,6.44632178827714e+001°)
4.07380277804110e+002	(-5.27671708093850e+001dB,6.39463449514984e+001°)
4.16869383470332e+002	(-5.26064761240129e+001dB,6.34221110208262e+001°)
4.26579518801589e+002	(-5.24472560937833e+001dB,6.28905892809911e+001°)
4.36515832240163e+002	(-5.22895514815396e+001dB,6.23518639030926e+001°)
4.46683592150960e+002	(-5.21334030904683e+001dB,6.18060303175484e+001°)
4.57088189614872e+002	(-5.19788516774945e+001dB,6.12531954652244e+001°)
4.67735141287195e+002	(-5.18259378621891e+001dB,6.06934780180654e+001°)
4.78630092322635e+002	(-5.16747020314228e+001dB,6.01270085660581e+001°)
4.89778819368443e+002	(-5.15251842400520e+001dB,5.95539297673996e+001°)
5.01187233627268e+002	(-5.13774241079770e+001dB,5.89743964588227e+001°)
5.12861383991361e+002	(-5.12314607139627e+001dB,5.83885757231495e+001°)
5.24807460249769e+002	(-5.10873324866687e+001dB,5.77966469113023e+001°)
