time	V(wh_1)	V(wh_1)-V(wh_2)	V(wh_2)
0.000000000000000e+000	0.000000e+000	1.881874e-001	-1.881874e-001
9.362285449502195e-006	-6.669496e-005	1.880493e-001	-1.881160e-001
1.872457089900439e-005	-2.460312e-004	1.876779e-001	-1.879239e-001
2.808685634850659e-005	-5.380088e-004	1.870733e-001	-1.876113e-001
3.744914179800878e-005	-9.426277e-004	1.862353e-001	-1.871780e-001
4.681142724751097e-005	-1.459888e-003	1.851642e-001	-1.866241e-001
5.617371269701317e-005	-2.089790e-003	1.838597e-001	-1.859495e-001
6.553599814651534e-005	-2.832332e-003	1.823220e-001	-1.851543e-001
1.310719962930307e-004	-1.053478e-002	1.663712e-001	-1.769060e-001
2.621439925860614e-004	-3.578271e-002	1.140860e-001	-1.498687e-001
5.242879851721227e-004	-9.227876e-002	-2.835929e-003	-8.944283e-002
1.048575970344245e-003	-1.245525e-001	-5.871912e-002	-6.583340e-002
2.048575970344246e-003	-1.068018e-001	-6.326378e-002	-4.353805e-002
3.048575970344246e-003	-4.353805e-002	-6.290912e-002	1.937108e-002
4.048575970344246e-003	1.937108e-002	1.264131e-001	-1.070420e-001
5.048575970344246e-003	-1.070420e-001	1.314038e-001	-2.384458e-001
6.048575970344246e-003	-2.384458e-001	8.681385e-002	-3.252597e-001
7.048575970344246e-003	-3.252597e-001	-8.967218e-002	-2.355875e-001
8.048575970344245e-003	-2.355875e-001	-1.761370e-001	-5.945052e-002
9.048575970344246e-003	-5.945052e-002	-6.686581e-002	7.415287e-003
1.004857597034425e-002	7.415287e-003	-6.134117e-002	6.875645e-002
1.104857597034425e-002	6.875645e-002	2.388949e-002	4.486696e-002
1.204857597034425e-002	4.486696e-002	8.000302e-002	-3.513606e-002
1.304857597034425e-002	-3.513606e-002	1.790926e-001	-2.142287e-001
1.404857597034425e-002	-2.142287e-001	1.246209e-001	-3.388495e-001
1.504857597034425e-002	-3.388495e-001	-1.826729e-001	-1.561767e-001
1.604857597034425e-002	-1.561767e-001	-2.453095e-001	8.913279e-002
1.704857597034425e-002	8.913279e-002	-8.359756e-002	1.727303e-001
1.804857597034425e-002	1.727303e-001	-1.535872e-002	1.880891e-001
1.904857597034425e-002	1.880891e-001	1.505140e-001	3.757501e-002
2.004857597034426e-002	3.757501e-002	1.038744e-001	-6.629939e-002
2.104857597034426e-002	-6.629939e-002	-2.733253e-001	2.070259e-001
2.204857597034426e-002	2.070259e-001	-2.187622e-001	4.257882e-001
2.304857597034426e-002	4.257882e-001	5.330271e-002	3.724855e-001
2.404857597034426e-002	3.724855e-001	2.001150e-001	1.723704e-001
2.504857597034426e-002	1.723704e-001	1.176443e-001	5.472618e-002
2.604857597034426e-002	5.472618e-002	-1.196894e-001	1.744156e-001
2.704857597034426e-002	1.744156e-001	2.176006e-002	1.526555e-001
2.804857597034426e-002	1.526555e-001	2.182473e-001	-6.559185e-002
2.904857597034426e-002	-6.559185e-002	2.299585e-002	-8.858770e-002
3.004857597034426e-002	-8.858770e-002	-1.710877e-001	8.250003e-002
3.104857597034427e-002	8.250003e-002	2.056085e-002	6.193918e-002
3.204857597034427e-002	6.193918e-002	2.825531e-002	3.368387e-002
3.304857597034427e-002	3.368387e-002	-1.324166e-001	1.661005e-001
3.404857597034427e-002	1.661005e-001	1.796969e-001	-1.359646e-002
3.504857597034427e-002	-1.359646e-002	2.710063e-001	-2.846028e-001
3.604857597034427e-002	-2.846028e-001	-1.791146e-001	-1.054882e-001
3.704857597034427e-002	-1.054882e-001	-3.767936e-001	2.713054e-001
3.804857597034427e-002	2.713054e-001	-9.963354e-002	3.709389e-001
3.904857597034427e-002	3.709389e-001	4.636499e-002	3.245739e-001
4.004857597034427e-002	3.245739e-001	-7.362556e-002	3.981995e-001
4.104857597034427e-002	3.981995e-001	5.534875e-002	3.428507e-001
4.204857597034428e-002	3.428507e-001	2.867840e-001	5.606676e-002
4.304857597034428e-002	5.606676e-002	1.286236e-001	-7.255686e-002
4.404857597034428e-002	-7.255686e-002	-7.730736e-002	4.750496e-003
4.504857597034428e-002	4.750496e-003	9.499756e-002	-9.024706e-002
4.604857597034428e-002	-9.024706e-002	1.739594e-001	-2.642064e-001
4.704857597034428e-002	-2.642064e-001	-1.828785e-001	-8.132796e-002
4.804857597034428e-002	-8.132796e-002	-3.320811e-001	2.507532e-001
4.904857597034428e-002	2.507532e-001	-4.563642e-002	2.963896e-001
5.004857597034428e-002	2.963896e-001	2.223148e-001	7.407473e-002
5.104857597034428e-002	7.407473e-002	2.894028e-001	-2.153281e-001
5.204857597034428e-002	-2.153281e-001	8.987601e-002	-3.052041e-001
5.304857597034429e-002	-3.052041e-001	-9.847732e-002	-2.067268e-001
5.404857597034429e-002	-2.067268e-001	-1.280209e-001	-7.870588e-002
5.504857597034429e-002	-7.870588e-002	-9.027902e-002	1.157314e-002
5.604857597034429e-002	1.157314e-002	-6.370909e-002	7.528223e-002
5.704857597034429e-002	7.528223e-002	-1.291370e-001	2.044192e-001
5.804857597034429e-002	2.044192e-001	-1.037354e-001	3.081546e-001
5.904857597034429e-002	3.081546e-001	1.582479e-002	2.923298e-001
6.004857597034429e-002	2.923298e-001	1.643217e-001	1.280081e-001
6.104857597034429e-002	1.280081e-001	1.280052e-001	2.902001e-006
6.204857597034429e-002	2.902001e-006	-9.709001e-004	9.738021e-004
6.304857597034429e-002	9.738021e-004	7.504374e-004	2.233647e-004
6.404857597034429e-002	2.233647e-004	2.410005e-002	-2.387669e-002
6.504857597034429e-002	-2.387669e-002	4.145076e-002	-6.532745e-002
6.604857597034429e-002	-6.532745e-002	-1.019469e-001	3.661941e-002
6.704857597034429e-002	3.661941e-002	-1.436564e-001	1.802758e-001
6.804857597034429e-002	1.802758e-001	1.243921e-001	5.588372e-002
6.904857597034429e-002	5.588372e-002	1.125393e-001	-5.665556e-002
7.004857597034429e-002	-5.665556e-002	-1.296601e-001	7.300454e-002
7.104857597034429e-002	7.300454e-002	1.183010e-001	-4.529651e-002
7.204857597034430e-002	-4.529651e-002	1.634686e-001	-2.087651e-001
7.304857597034430e-002	-2.087651e-001	-1.420004e-001	-6.676470e-002
7.404857597034430e-002	-6.676470e-002	1.042189e-002	-7.718658e-002
7.504857597034430e-002	-7.718658e-002	1.920240e-001	-2.692106e-001
7.604857597034430e-002	-2.692106e-001	1.313727e-001	-4.005833e-001
7.704857597034430e-002	-4.005833e-001	-1.646154e-001	-2.359679e-001
7.804857597034430e-002	-2.359679e-001	-3.689805e-001	1.330125e-001
7.904857597034430e-002	1.330125e-001	-1.285146e-001	2.615271e-001
8.004857597034430e-002	2.615271e-001	7.865787e-002	1.828693e-001
8.104857597034430e-002	1.828693e-001	4.297371e-002	1.398955e-001
8.204857597034430e-002	1.398955e-001	4.028668e-002	9.960886e-002
8.304857597034430e-002	9.960886e-002	1.501527e-001	-5.054384e-002
8.404857597034431e-002	-5.054384e-002	6.309300e-002	-1.136368e-001
8.504857597034431e-002	-1.136368e-001	3.844380e-002	-1.520806e-001
8.604857597034431e-002	-1.520806e-001	5.423924e-002	-2.063199e-001
8.704857597034431e-002	-2.063199e-001	-1.420271e-001	-6.429282e-002
8.804857597034431e-002	-6.429282e-002	-7.136623e-002	7.073408e-003
8.904857597034431e-002	7.073408e-003	3.560874e-003	3.512535e-003
9.004857597034431e-002	3.512535e-003	-3.053470e-002	3.404724e-002
9.104857597034431e-002	3.404724e-002	4.600608e-002	-1.195884e-002
9.204857597034431e-002	-1.195884e-002	-5.835789e-003	-6.123051e-003
9.304857597034431e-002	-6.123051e-003	-4.702467e-002	4.090162e-002
9.404857597034431e-002	4.090162e-002	-8.763943e-002	1.285411e-001
9.504857597034432e-002	1.285411e-001	-4.100829e-002	1.695493e-001
9.604857597034432e-002	1.695493e-001	1.767819e-001	-7.232577e-003
9.704857597034432e-002	-7.232577e-003	1.200964e-002	-1.924221e-002
9.804857597034432e-002	-1.924221e-002	-1.329980e-001	1.137558e-001
9.904857597034432e-002	1.137558e-001	1.010500e-001	1.270581e-002
1.000485759703443e-001	1.270581e-002	7.162295e-002	-5.891714e-002
1.010485759703443e-001	-5.891714e-002	-1.050218e-001	4.610464e-002
1.020485759703443e-001	4.610464e-002	-8.334675e-002	1.294514e-001
1.030485759703443e-001	1.294514e-001	-6.229208e-002	1.917435e-001
1.040485759703443e-001	1.917435e-001	-1.078469e-001	2.995904e-001
1.050485759703443e-001	2.995904e-001	8.697011e-002	2.126203e-001
1.060485759703443e-001	2.126203e-001	3.198320e-001	-1.072118e-001
1.070485759703443e-001	-1.072118e-001	1.452702e-001	-2.524819e-001
1.080485759703443e-001	-2.524819e-001	-1.582811e-001	-9.420085e-002
1.090485759703443e-001	-9.420085e-002	-2.766130e-001	1.824121e-001
1.100485759703443e-001	1.824121e-001	5.309150e-003	1.771030e-001
1.110485759703443e-001	1.771030e-001	1.331659e-001	4.393709e-002
1.120485759703443e-001	4.393709e-002	7.468693e-003	3.646839e-002
1.130485759703443e-001	3.646839e-002	1.412818e-001	-1.048134e-001
1.140485759703443e-001	-1.048134e-001	-2.121193e-002	-8.360146e-002
1.150485759703443e-001	-8.360146e-002	-2.022242e-001	1.186227e-001
1.160485759703443e-001	1.186227e-001	-1.348098e-001	2.534325e-001
1.170485759703443e-001	2.534325e-001	-4.487327e-002	2.983057e-001
1.180485759703443e-001	2.983057e-001	6.433216e-002	2.339736e-001
1.190485759703443e-001	2.339736e-001	-1.459536e-002	2.485690e-001
1.200485759703443e-001	2.485690e-001	3.251010e-002	2.160589e-001
1.210485759703443e-001	2.160589e-001	2.617126e-001	-4.565378e-002
1.220485759703443e-001	-4.565378e-002	2.206643e-001	-2.663181e-001
1.230485759703443e-001	-2.663181e-001	-1.679870e-001	-9.833100e-002
1.240485759703443e-001	-9.833100e-002	-2.438172e-001	1.454862e-001
1.250485759703443e-001	1.454862e-001	-2.621958e-002	1.717058e-001
1.260485759703443e-001	1.717058e-001	-8.092529e-002	2.526311e-001
1.270485759703443e-001	2.526311e-001	9.859040e-002	1.540407e-001
1.280485759703443e-001	1.540407e-001	2.267765e-001	-7.273579e-002
1.290485759703443e-001	-7.273579e-002	-2.868979e-002	-4.404600e-002
1.300485759703443e-001	-4.404600e-002	-9.608473e-002	5.203873e-002
1.310485759703443e-001	5.203873e-002	3.004926e-002	2.198947e-002
1.320485759703443e-001	2.198947e-002	2.224396e-001	-2.004501e-001
1.330485759703443e-001	-2.004501e-001	5.066508e-002	-2.511152e-001
1.340485759703443e-001	-2.511152e-001	-1.932270e-001	-5.788821e-002
1.350485759703443e-001	-5.788821e-002	-1.221581e-001	6.426986e-002
1.360485759703443e-001	6.426986e-002	-1.519981e-001	2.162679e-001
1.370485759703443e-001	2.162679e-001	2.688904e-002	1.893789e-001
1.380485759703443e-001	1.893789e-001	2.664990e-001	-7.712016e-002
1.390485759703443e-001	-7.712016e-002	3.369072e-002	-1.108109e-001
1.400485759703443e-001	-1.108109e-001	-2.491757e-001	1.383649e-001
1.410485759703443e-001	1.383649e-001	-2.160805e-001	3.544453e-001
1.420485759703443e-001	3.544453e-001	8.482754e-003	3.459626e-001
1.430485759703443e-001	3.459626e-001	1.468936e-001	1.990689e-001
1.440485759703443e-001	1.990689e-001	8.615629e-002	1.129127e-001
1.450485759703444e-001	1.129127e-001	-6.043611e-002	1.733488e-001
1.460485759703444e-001	1.733488e-001	-6.034778e-002	2.336966e-001
1.470485759703444e-001	2.336966e-001	1.605825e-001	7.311404e-002
1.480485759703444e-001	7.311404e-002	7.175452e-002	1.359523e-003
1.490485759703444e-001	1.359523e-003	-2.278436e-001	2.292031e-001
1.500485759703444e-001	2.292031e-001	-1.042427e-001	3.334458e-001
1.510485759703444e-001	3.334458e-001	1.840691e-001	1.493767e-001
1.520485759703444e-001	1.493767e-001	1.934695e-001	-4.409277e-002
1.530485759703444e-001	-4.409277e-002	-8.436764e-002	4.027487e-002
1.540485759703444e-001	4.027487e-002	-2.698000e-001	3.100748e-001
1.550485759703444e-001	3.100748e-001	-8.299065e-002	3.930655e-001
1.560485759703444e-001	3.930655e-001	8.404544e-002	3.090200e-001
1.570485759703444e-001	3.090200e-001	7.153100e-002	2.374890e-001
1.580485759703444e-001	2.374890e-001	1.486583e-001	8.883071e-002
1.590485759703444e-001	8.883071e-002	1.605549e-001	-7.172418e-002
1.600485759703444e-001	-7.172418e-002	1.470418e-002	-8.642835e-002
1.610485759703444e-001	-8.642835e-002	5.852922e-002	-1.449576e-001
1.620485759703444e-001	-1.449576e-001	4.115808e-002	-1.861157e-001
1.630485759703444e-001	-1.861157e-001	-1.736025e-001	-1.251316e-002
1.640485759703444e-001	-1.251316e-002	-9.980089e-002	8.728772e-002
1.650485759703444e-001	8.728772e-002	-3.162548e-003	9.045027e-002
1.660485759703444e-001	9.045027e-002	-1.347211e-002	1.039224e-001
1.670485759703444e-001	1.039224e-001	2.030832e-002	8.361406e-002
1.680485759703444e-001	8.361406e-002	-4.822820e-003	8.843688e-002
1.690485759703444e-001	8.843688e-002	4.881889e-002	3.961799e-002
1.700485759703444e-001	3.961799e-002	1.086814e-001	-6.906344e-002
1.710485759703444e-001	-6.906344e-002	-6.333426e-003	-6.273001e-002
1.720485759703444e-001	-6.273001e-002	-9.001428e-002	2.728426e-002
1.730485759703444e-001	2.728426e-002	1.088602e-001	-8.157593e-002
1.740485759703444e-001	-8.157593e-002	2.567355e-001	-3.383114e-001
1.750485759703444e-001	-3.383114e-001	1.179107e-001	-4.562221e-001
1.760485759703444e-001	-4.562221e-001	-1.403591e-001	-3.158630e-001
1.770485759703444e-001	-3.158630e-001	-2.097726e-001	-1.060905e-001
1.780485759703444e-001	-1.060905e-001	-1.054533e-001	-6.372128e-004
1.790485759703444e-001	-6.372128e-004	-2.017574e-001	2.011201e-001
1.800485759703444e-001	2.011201e-001	-2.045494e-001	4.056696e-001
1.810485759703444e-001	4.056696e-001	5.273110e-002	3.529385e-001
1.820485759703444e-001	3.529385e-001	9.962815e-002	2.533103e-001
1.830485759703444e-001	2.533103e-001	-1.189777e-002	2.652081e-001
1.840485759703444e-001	2.652081e-001	2.036194e-001	6.158867e-002
1.850485759703444e-001	6.158867e-002	2.551099e-001	-1.935212e-001
1.860485759703444e-001	-1.935212e-001	2.618161e-002	-2.197028e-001
1.870485759703444e-001	-2.197028e-001	-1.168309e-002	-2.080197e-001
1.880485759703444e-001	-2.080197e-001	5.648464e-003	-2.136682e-001
1.890485759703444e-001	-2.136682e-001	-5.179979e-002	-1.618684e-001
1.900485759703444e-001	-1.618684e-001	-9.220286e-002	-6.966557e-002
1.910485759703444e-001	-6.966557e-002	2.785245e-002	-9.751801e-002
1.920485759703444e-001	-9.751801e-002	-7.104615e-002	-2.647186e-002
1.930485759703444e-001	-2.647186e-002	-5.559708e-002	2.912522e-002
1.940485759703444e-001	2.912522e-002	1.166446e-001	-8.751935e-002
1.950485759703444e-001	-8.751935e-002	-3.106043e-002	-5.645891e-002
1.960485759703444e-001	-5.645891e-002	-1.228457e-002	-4.417435e-002
1.970485759703444e-001	-4.417435e-002	1.298611e-001	-1.740354e-001
1.980485759703444e-001	-1.740354e-001	-4.863143e-004	-1.735491e-001
1.990485759703444e-001	-1.735491e-001	-2.263806e-001	5.283152e-002
2.000485759703444e-001	5.283152e-002	-2.058036e-001	2.586351e-001
2.010485759703444e-001	2.586351e-001	-6.173688e-002	3.203720e-001
2.020485759703444e-001	3.203720e-001	1.557830e-001	1.645890e-001
2.030485759703444e-001	1.645890e-001	2.472591e-001	-8.267007e-002
2.040485759703444e-001	-8.267007e-002	-5.613938e-003	-7.705613e-002
2.050485759703444e-001	-7.705613e-002	-1.389839e-001	6.192772e-002
2.060485759703444e-001	6.192772e-002	-8.149490e-002	1.434226e-001
2.070485759703444e-001	1.434226e-001	1.350024e-001	8.420195e-003
2.080485759703444e-001	8.420195e-003	2.855777e-001	-2.771575e-001
2.090485759703444e-001	-2.771575e-001	-8.611387e-002	-1.910436e-001
2.100485759703444e-001	-1.910436e-001	-4.179358e-001	2.268922e-001
2.110485759703444e-001	2.268922e-001	-2.083719e-003	2.289759e-001
2.120485759703444e-001	2.289759e-001	1.982111e-001	3.076477e-002
2.130485759703444e-001	3.076477e-002	-1.815852e-001	2.123500e-001
2.140485759703444e-001	2.123500e-001	-1.442244e-001	3.565744e-001
2.150485759703444e-001	3.565744e-001	2.613536e-002	3.304391e-001
2.160485759703444e-001	3.304391e-001	4.087639e-002	2.895627e-001
2.170485759703444e-001	2.895627e-001	1.031533e-001	1.864093e-001
2.180485759703444e-001	1.864093e-001	4.482174e-002	1.415876e-001
2.190485759703444e-001	1.415876e-001	6.712807e-002	7.445952e-002
2.200485759703444e-001	7.445952e-002	2.332645e-001	-1.588050e-001
2.210485759703444e-001	-1.588050e-001	1.900611e-001	-3.488662e-001
2.220485759703444e-001	-3.488662e-001	-8.306637e-002	-2.657998e-001
2.230485759703444e-001	-2.657998e-001	-1.601524e-001	-1.056474e-001
2.240485759703444e-001	-1.056474e-001	-6.778250e-002	-3.786487e-002
2.250485759703444e-001	-3.786487e-002	-3.277912e-002	-5.085744e-003
2.260485759703444e-001	-5.085744e-003	1.426764e-001	-1.477622e-001
2.270485759703444e-001	-1.477622e-001	9.817357e-002	-2.459358e-001
2.280485759703444e-001	-2.459358e-001	-2.285820e-001	-1.735378e-002
2.290485759703444e-001	-1.735378e-002	-1.952071e-001	1.778533e-001
2.300485759703444e-001	1.778533e-001	1.452704e-001	3.258292e-002
2.310485759703444e-001	3.258292e-002	8.167585e-002	-4.909293e-002
2.320485759703444e-001	-4.909293e-002	-2.523591e-002	-2.385702e-002
2.330485759703444e-001	-2.385702e-002	6.572140e-002	-8.957842e-002
2.340485759703444e-001	-8.957842e-002	2.446220e-002	-1.140406e-001
2.350485759703444e-001	-1.140406e-001	8.606156e-002	-2.001022e-001
2.360485759703444e-001	-2.001022e-001	-7.266755e-002	-1.274346e-001
2.370485759703444e-001	-1.274346e-001	-2.745296e-001	1.470950e-001
2.380485759703444e-001	1.470950e-001	-1.827225e-003	1.489222e-001
2.390485759703444e-001	1.489222e-001	2.713387e-001	-1.224165e-001
2.400485759703444e-001	-1.224165e-001	1.474162e-001	-2.698326e-001
2.410485759703444e-001	-2.698326e-001	-3.313959e-003	-2.665187e-001
2.420485759703444e-001	-2.665187e-001	-1.622430e-001	-1.042756e-001
2.430485759703444e-001	-1.042756e-001	-1.475093e-001	4.323371e-002
2.440485759703444e-001	4.323371e-002	-1.849730e-002	6.173101e-002
2.450485759703444e-001	6.173101e-002	4.056983e-002	2.116118e-002
2.460485759703444e-001	2.116118e-002	2.651437e-001	-2.439825e-001
2.470485759703444e-001	-2.439825e-001	6.552690e-002	-3.095094e-001
2.480485759703444e-001	-3.095094e-001	-1.724906e-001	-1.370188e-001
2.490485759703444e-001	-1.370188e-001	7.043162e-002	-2.074504e-001
2.500485759703444e-001	-2.074504e-001	8.692816e-003	-2.161432e-001
2.510485759703444e-001	-2.161432e-001	-1.388615e-001	-7.728171e-002
2.520485759703444e-001	-7.728171e-002	1.903922e-002	-9.632093e-002
2.530485759703444e-001	-9.632093e-002	1.022960e-001	-1.986169e-001
2.540485759703444e-001	-1.986169e-001	-2.663660e-002	-1.719803e-001
2.550485759703444e-001	-1.719803e-001	-2.680496e-001	9.606929e-002
2.560485759703444e-001	9.606929e-002	-1.453664e-001	2.414357e-001
2.570485759703444e-001	2.414357e-001	1.344960e-001	1.069397e-001
2.580485759703444e-001	1.069397e-001	2.619294e-002	8.074676e-002
2.590485759703444e-001	8.074676e-002	2.353266e-002	5.721409e-002
2.600485759703444e-001	5.721409e-002	6.994790e-002	-1.273381e-002
2.610485759703444e-001	-1.273381e-002	-1.055400e-002	-2.179809e-003
2.620485759703444e-001	-2.179809e-003	5.497012e-002	-5.714992e-002
2.630485759703444e-001	-5.714992e-002	3.753466e-002	-9.468459e-002
2.640485759703444e-001	-9.468459e-002	-1.687859e-002	-7.780600e-002
2.650485759703444e-001	-7.780600e-002	-1.257218e-001	4.791584e-002
2.660485759703444e-001	4.791584e-002	2.419540e-002	2.372044e-002
2.670485759703444e-001	2.372044e-002	1.166527e-001	-9.293224e-002
2.680485759703444e-001	-9.293224e-002	-2.355203e-001	1.425881e-001
2.690485759703444e-001	1.425881e-001	-1.620556e-001	3.046437e-001
2.700485759703444e-001	3.046437e-001	2.402843e-001	6.435940e-002
2.710485759703444e-001	6.435940e-002	1.546471e-001	-9.028772e-002
2.720485759703444e-001	-9.028772e-002	-1.170772e-001	2.678944e-002
2.730485759703444e-001	2.678944e-002	-6.321714e-002	9.000658e-002
2.740485759703444e-001	9.000658e-002	-3.937917e-002	1.293858e-001
2.750485759703444e-001	1.293858e-001	-5.464548e-002	1.840312e-001
2.760485759703444e-001	1.840312e-001	7.092159e-002	1.131096e-001
2.770485759703444e-001	1.131096e-001	4.528094e-002	6.782870e-002
2.780485759703444e-001	6.782870e-002	-3.853467e-002	1.063634e-001
2.790485759703444e-001	1.063634e-001	1.601695e-001	-5.380616e-002
2.800485759703444e-001	-5.380616e-002	1.464819e-001	-2.002880e-001
2.810485759703444e-001	-2.002880e-001	-2.235242e-001	2.323618e-002
2.820485759703444e-001	2.323618e-002	-1.200088e-001	1.432449e-001
2.830485759703444e-001	1.432449e-001	8.035243e-002	6.289250e-002
2.840485759703444e-001	6.289250e-002	-1.181661e-002	7.470911e-002
2.850485759703444e-001	7.470911e-002	2.200913e-001	-1.453822e-001
