time	V(file_1)	V(file_1)-V(wh_2)	V(wh_2)
0.000000000000000e+000	4.129710e-001	4.129710e-001	0.000000e+000
9.362285449502195e-006	4.254084e-001	4.254751e-001	-6.669496e-005
1.872457089900439e-005	4.378459e-001	4.380919e-001	-2.460312e-004
2.808685634850659e-005	4.502833e-001	4.508213e-001	-5.380088e-004
3.744914179800878e-005	4.627207e-001	4.636634e-001	-9.426277e-004
4.681142724751097e-005	4.751582e-001	4.766181e-001	-1.459888e-003
5.617371269701317e-005	4.875956e-001	4.896854e-001	-2.089790e-003
6.553599814651534e-005	5.000330e-001	5.028654e-001	-2.832332e-003
1.310719962930307e-004	5.870950e-001	5.976298e-001	-1.053478e-002
2.621439925860614e-004	7.612191e-001	7.970018e-001	-3.578271e-002
5.242879851721227e-004	1.109467e+000	1.203690e+000	-9.422238e-002
1.000000000000000e-003	1.741432e+000	1.929619e+000	-1.881874e-001
1.052428798517212e-003	1.654164e+000	1.839318e+000	-1.851541e-001
1.157286395551637e-003	1.479628e+000	1.650336e+000	-1.707076e-001
1.367001589620486e-003	1.130556e+000	1.253881e+000	-1.233254e-001
1.786431977758184e-003	4.324120e-001	4.545199e-001	-2.210783e-002
2.000000000000000e-003	7.692700e-002	6.358983e-002	1.333717e-002
2.083886077627540e-003	8.427198e-002	8.113170e-002	3.140281e-003
2.251658232882619e-003	9.896194e-002	1.391430e-001	-4.018107e-002
2.587202543392778e-003	1.283419e-001	2.785617e-001	-1.502198e-001
3.000000000000000e-003	1.644860e-001	4.319134e-001	-2.674274e-001
3.067108862102032e-003	1.671512e-001	4.198662e-001	-2.527150e-001
3.201326586306095e-003	1.724817e-001	3.585451e-001	-1.860634e-001
3.469762034714222e-003	1.831426e-001	1.867532e-001	-3.610611e-003
4.000000000000000e-003	2.042010e-001	-1.414050e-001	3.456060e-001
4.053687089681625e-003	1.769444e-001	-1.578211e-001	3.347655e-001
4.161061269044876e-003	1.224313e-001	-1.609143e-001	2.833456e-001
4.375809627771377e-003	1.340508e-002	-1.035675e-001	1.169725e-001
4.805306345224380e-003	-2.046474e-001	3.085379e-002	-2.355012e-001
5.000000000000000e-003	-3.034920e-001	3.934583e-002	-3.428378e-001
5.085899343490601e-003	-2.675629e-001	6.547478e-002	-3.330377e-001
5.257698030471802e-003	-1.957046e-001	9.604073e-002	-2.917454e-001
5.601295404434204e-003	-5.198817e-002	1.356640e-001	-1.876522e-001
6.000000000000000e-003	1.147780e-001	1.992678e-001	-8.448981e-002
6.068719474792481e-003	7.740354e-002	1.708016e-001	-9.339803e-002
6.206158424377442e-003	2.654617e-003	1.361755e-001	-1.335209e-001
6.481036323547364e-003	-1.468432e-001	9.560199e-002	-2.424452e-001
6.999999999999999e-003	-4.290920e-001	1.046193e-002	-4.395539e-001
7.054975579833984e-003	-4.028426e-001	3.506944e-002	-4.379121e-001
7.164926739501952e-003	-3.503439e-001	7.981318e-002	-4.301571e-001
7.824633697509765e-003	-3.535168e-002	3.181043e-001	-3.534560e-001
8.000000000000000e-003	4.838100e-002	3.882623e-001	-3.398813e-001
8.087960927734375e-003	1.043369e-002	3.300310e-001	-3.195973e-001
8.263882783203126e-003	-6.546094e-002	1.694050e-001	-2.348659e-001
8.615726494140627e-003	-2.172502e-001	-1.943824e-001	-2.286783e-002
8.999999999999999e-003	-3.830300e-001	-5.551502e-001	1.721202e-001
9.070368742187500e-003	-4.069779e-001	-5.681850e-001	1.612071e-001
9.211106226562500e-003	-4.548737e-001	-5.672237e-001	1.123500e-001
9.492581195312501e-003	-5.506653e-001	-5.314641e-001	-1.920115e-002
1.000000000000000e-002	-7.233500e-001	-4.793560e-001	-2.439940e-001
1.005629499375000e-002	-6.963511e-001	-4.624858e-001	-2.338653e-001
1.016888498125000e-002	-6.423533e-001	-4.561205e-001	-1.862328e-001
1.039406495625000e-002	-5.343576e-001	-4.977889e-001	-3.656868e-002
1.084442490625000e-002	-3.183663e-001	-5.935276e-001	2.751612e-001
1.100000000000000e-002	-2.437530e-001	-5.875853e-001	3.438323e-001
1.109007199000000e-002	-1.210985e-001	-4.437562e-001	3.226576e-001
1.127021597000000e-002	1.242104e-001	-1.107863e-001	2.349966e-001
1.163050393000000e-002	6.148282e-001	5.975273e-001	1.730086e-002
1.200000000000000e-002	1.117985e+000	1.285986e+000	-1.680007e-001
1.207205759200000e-002	1.095123e+000	1.253754e+000	-1.586309e-001
1.221617277600000e-002	1.049400e+000	1.166344e+000	-1.169441e-001
1.250440314400000e-002	9.579535e-001	9.635612e-001	-5.607691e-003
1.300000000000000e-002	8.007160e-001	6.269058e-001	1.738102e-001
1.305764607360000e-002	7.603622e-001	5.953662e-001	1.649960e-001
1.317293822080000e-002	6.796546e-001	5.559229e-001	1.237317e-001
1.340352251520000e-002	5.182393e-001	5.221220e-001	-3.882727e-003
1.386469110400000e-002	1.954089e-001	4.627736e-001	-2.673647e-001
1.400000000000000e-002	1.006890e-001	4.159361e-001	-3.152471e-001
1.409223371776000e-002	5.102843e-002	3.697965e-001	-3.187681e-001
1.427670115328000e-002	-4.829271e-002	2.849159e-001	-3.332086e-001
1.464563602432000e-002	-2.469350e-001	1.218699e-001	-3.688049e-001
1.500000000000000e-002	-4.377320e-001	-4.097369e-002	-3.967583e-001
1.507378697420800e-002	-4.695784e-001	-7.697806e-002	-3.926003e-001
1.522136092262400e-002	-5.332711e-001	-1.590502e-001	-3.742209e-001
1.551650881945600e-002	-6.606567e-001	-3.351301e-001	-3.255266e-001
1.600000000000000e-002	-8.693310e-001	-6.177036e-001	-2.516274e-001
1.605902957936640e-002	-8.325195e-001	-5.906976e-001	-2.418219e-001
1.617708873809920e-002	-7.588965e-001	-5.627661e-001	-1.961305e-001
1.641320705556480e-002	-6.116505e-001	-5.544794e-001	-5.717116e-002
1.688544369049600e-002	-3.171586e-001	-5.443235e-001	2.271649e-001
1.700000000000000e-002	-2.457200e-001	-5.142747e-001	2.685547e-001
1.709444732698624e-002	-2.277921e-001	-4.873361e-001	2.595440e-001
1.728334198095872e-002	-1.919363e-001	-4.148833e-001	2.229470e-001
1.766113128890368e-002	-1.202247e-001	-2.536232e-001	1.333985e-001
1.800000000000000e-002	-5.590100e-002	-1.246470e-001	6.874601e-002
1.807555786158899e-002	-7.132214e-002	-1.465256e-001	7.520343e-002
1.822667358476697e-002	-1.021644e-001	-2.057201e-001	1.035557e-001
1.852890503112294e-002	-1.638489e-001	-3.419257e-001	1.780767e-001
1.900000000000000e-002	-2.599980e-001	-5.444205e-001	2.844225e-001
1.906044628927119e-002	-2.267618e-001	-5.079211e-001	2.811593e-001
1.918133886781358e-002	-1.602894e-001	-4.263162e-001	2.660269e-001
1.990669433906791e-002	2.385452e-001	1.093960e-001	1.291492e-001
2.000000000000000e-002	2.898490e-001	1.709516e-001	1.188975e-001
2.009671406283391e-002	3.325301e-001	2.366006e-001	9.592948e-002
2.029014218850173e-002	4.178922e-001	4.143015e-001	3.590722e-003
2.067699843983737e-002	5.886165e-001	8.093132e-001	-2.206967e-001
2.100000000000000e-002	7.311610e-001	1.100161e+000	-3.690000e-001
2.107737125026713e-002	6.962333e-001	1.042851e+000	-3.466177e-001
2.123211375080138e-002	6.263779e-001	8.754070e-001	-2.490291e-001
2.154159875186990e-002	4.866671e-001	4.812070e-001	5.460112e-003
2.200000000000000e-002	2.797310e-001	-6.667525e-002	3.464063e-001
2.206189700021370e-002	2.896666e-001	-5.987000e-002	3.495366e-001
2.218569100064111e-002	3.095377e-001	-5.444309e-002	3.639808e-001
2.292845500320553e-002	4.287647e-001	-6.262544e-002	4.913902e-001
2.300000000000000e-002	4.402490e-001	-5.799714e-002	4.982461e-001
2.309903520034192e-002	4.149800e-001	-7.655638e-002	4.915363e-001
2.329710560102577e-002	3.644419e-001	-1.004044e-001	4.648463e-001
2.369324640239347e-002	2.633658e-001	-1.371243e-001	4.004901e-001
2.400000000000000e-002	1.850970e-001	-1.765897e-001	3.616867e-001
2.407922816027354e-002	1.105906e-001	-2.482238e-001	3.588144e-001
2.423768448082062e-002	-3.842220e-002	-3.848037e-001	3.463815e-001
2.455459712191477e-002	-3.364478e-001	-6.506591e-001	3.142113e-001
2.500000000000000e-002	-7.553060e-001	-1.029126e+000	2.738203e-001
2.506338252821883e-002	-6.990764e-001	-9.623248e-001	2.632485e-001
2.519014758465649e-002	-5.866171e-001	-8.013352e-001	2.147181e-001
2.544367769753182e-002	-3.616987e-001	-4.369065e-001	7.520787e-002
2.595073792328247e-002	8.813830e-002	2.903065e-001	-2.021682e-001
2.600000000000000e-002	1.318410e-001	3.484184e-001	-2.165774e-001
2.609852415343507e-002	1.367431e-001	3.245267e-001	-1.877836e-001
2.629557246030520e-002	1.465472e-001	2.195246e-001	-7.297742e-002
2.668966907404546e-002	1.661555e-001	-3.813407e-002	2.042896e-001
2.700000000000000e-002	1.815960e-001	-1.933373e-001	3.749333e-001
2.707881932274805e-002	1.009880e-001	-2.671458e-001	3.681338e-001
2.723645796824416e-002	-6.022791e-002	-3.988825e-001	3.386546e-001
2.755173525923637e-002	-3.826598e-001	-6.449070e-001	2.622472e-001
2.800000000000000e-002	-8.410970e-001	-1.006029e+000	1.649317e-001
2.806305545819844e-002	-7.858908e-001	-9.454193e-001	1.595285e-001
2.818916637459533e-002	-6.754782e-001	-8.101750e-001	1.346968e-001
2.844138820738909e-002	-4.546532e-001	-5.176488e-001	6.299553e-002
2.894583187297663e-002	-1.300322e-002	6.687218e-002	-7.987540e-002
2.900000000000000e-002	3.442200e-002	1.225805e-001	-8.815848e-002
2.910000000000000e-002	7.711210e-002	1.733784e-001	-9.626631e-002
2.930000000000000e-002	1.624923e-001	2.908656e-001	-1.283733e-001
2.970000000000000e-002	3.332527e-001	5.388126e-001	-2.055599e-001
3.000000000000000e-002	4.613230e-001	7.116382e-001	-2.503152e-001
3.008000000000000e-002	3.367867e-001	5.711265e-001	-2.343398e-001
3.024000000000000e-002	8.771405e-002	2.531139e-001	-1.653999e-001
3.056000000000000e-002	-4.104312e-001	-4.228496e-001	1.241838e-002
3.100000000000000e-002	-1.095381e+000	-1.325095e+000	2.297143e-001
3.106400000000000e-002	-1.033063e+000	-1.260400e+000	2.273374e-001
3.119200000000000e-002	-9.084274e-001	-1.124877e+000	2.164496e-001
3.196000000000000e-002	-1.606127e-001	-2.845802e-001	1.239675e-001
3.200000000000000e-002	-1.216640e-001	-2.431124e-001	1.214484e-001
3.208000000000000e-002	-1.096676e-001	-2.196178e-001	1.099502e-001
3.223999999999999e-002	-8.567480e-002	-1.460060e-001	6.033121e-002
3.255999999999998e-002	-3.768920e-002	2.996303e-002	-6.765223e-002
3.300000000000000e-002	2.829100e-002	2.523404e-001	-2.240494e-001
3.306400000000000e-002	4.916921e-002	2.582511e-001	-2.090819e-001
3.319199999999999e-002	9.092563e-002	2.314475e-001	-1.405219e-001
3.344799999999999e-002	1.744385e-001	1.195341e-001	5.490432e-002
3.395999999999996e-002	3.414641e-001	-1.003720e-001	4.418362e-001
3.400000000000000e-002	3.545130e-001	-1.031860e-001	4.576990e-001
3.408000000000006e-002	4.023360e-001	-3.939721e-002	4.417332e-001
3.424000000000019e-002	4.979821e-001	1.251472e-001	3.728349e-001
3.456000000000046e-002	6.892743e-001	4.941504e-001	1.951238e-001
3.500000000000000e-002	9.523010e-001	9.743421e-001	-2.204106e-002
3.506400000000005e-002	8.943246e-001	9.259917e-001	-3.166708e-002
3.519200000000015e-002	7.783719e-001	8.541318e-001	-7.575997e-002
3.544800000000037e-002	5.464663e-001	7.479104e-001	-2.014441e-001
3.596000000000079e-002	8.265524e-002	5.329462e-001	-4.502909e-001
3.600000000000000e-002	4.642000e-002	5.069128e-001	-4.604928e-001
3.607999999999841e-002	4.098728e-002	4.928193e-001	-4.518320e-001
3.623999999999524e-002	3.012184e-002	4.445795e-001	-4.144576e-001
3.655999999998890e-002	8.390960e-003	3.264479e-001	-3.180569e-001
3.700000000000000e-002	-2.148900e-002	1.787652e-001	-2.002542e-001
3.706399999999873e-002	-1.848727e-002	1.679591e-001	-1.864464e-001
3.719199999999619e-002	-1.248382e-002	1.107146e-001	-1.231984e-001
3.744799999999112e-002	-4.769038e-004	-5.756320e-002	5.708629e-002
3.795999999998097e-002	2.353692e-002	-3.905019e-001	4.140388e-001
3.800000000000000e-002	2.541300e-002	-4.032596e-001	4.286726e-001
3.900000000000000e-002	4.906320e-001	6.525907e-002	4.253729e-001
3.906400000003044e-002	3.836173e-001	-3.693122e-002	4.205486e-001
3.919200000009132e-002	1.695880e-001	-2.288621e-001	3.984502e-001
3.996000000045660e-002	-1.114588e+000	-1.325331e+000	2.107433e-001
4.000000000000000e-002	-1.181472e+000	-1.387102e+000	2.056303e-001
4.007999999908681e-002	-1.118332e+000	-1.332415e+000	2.140832e-001
4.023999999726043e-002	-9.920508e-001	-1.242611e+000	2.505602e-001
4.055999999360768e-002	-7.394892e-001	-1.084136e+000	3.446464e-001
4.100000000000000e-002	-3.922170e-001	-8.518377e-001	4.596207e-001
4.200000000000000e-002	5.703740e-001	1.009753e-001	4.693987e-001
4.208000002191654e-002	5.419282e-001	8.878767e-002	4.531405e-001
4.224000006574964e-002	4.850365e-001	1.020562e-001	3.829802e-001
4.256000015341584e-002	3.712531e-001	1.692389e-001	2.020142e-001
4.300000000000000e-002	2.148010e-001	2.339292e-001	-1.912815e-002
4.306400001753324e-002	2.175647e-001	2.407366e-001	-2.317183e-002
4.319200005259972e-002	2.230921e-001	2.647864e-001	-4.169429e-002
4.344800012273267e-002	2.341470e-001	3.286384e-001	-9.449145e-002
4.396000026299858e-002	2.562567e-001	4.552832e-001	-1.990265e-001
4.400000000000000e-002	2.579840e-001	4.612961e-001	-2.033121e-001
4.407999947400283e-002	2.735527e-001	4.656600e-001	-1.921073e-001
4.423999842200850e-002	3.046901e-001	4.484443e-001	-1.437542e-001
4.455999631801984e-002	3.669649e-001	3.860007e-001	-1.903581e-002
4.500000000000000e-002	4.525940e-001	3.192197e-001	1.333743e-001
4.506399957920226e-002	4.211168e-001	2.915894e-001	1.295274e-001
4.519199873760680e-002	3.581623e-001	2.462558e-001	1.119065e-001
4.544799705441587e-002	2.322534e-001	1.705746e-001	6.167873e-002
4.595999368803401e-002	-1.956450e-002	1.820486e-002	-3.776936e-002
4.600000000000000e-002	-3.924100e-002	2.606094e-003	-4.184709e-002
4.608001262393198e-002	-1.243385e-001	-7.037437e-002	-5.396414e-002
4.624003787179594e-002	-2.945335e-001	-1.882823e-001	-1.062512e-001
4.656008836752386e-002	-6.349235e-001	-3.938140e-001	-2.411095e-001
4.700000000000000e-002	-1.102792e+000	-6.969571e-001	-4.058349e-001
4.706401009914558e-002	-9.656721e-001	-5.641755e-001	-4.014966e-001
4.719203029743675e-002	-6.914322e-001	-3.098068e-001	-3.816254e-001
4.796015148718376e-002	9.540071e-001	1.166875e+000	-2.128680e-001
4.800000000000000e-002	1.039369e+000	1.247660e+000	-2.082909e-001
4.807969702563249e-002	9.348383e-001	1.120120e+000	-1.852817e-001
4.823909107689746e-002	7.257769e-001	8.116460e-001	-8.586906e-002
4.855787917942740e-002	3.076541e-001	1.367881e-001	1.708660e-001
4.900000000000000e-002	-2.722320e-001	-7.601845e-001	4.879525e-001
4.906375762050599e-002	-2.932447e-001	-7.756636e-001	4.824189e-001
4.919127286151796e-002	-3.352702e-001	-7.923201e-001	4.570499e-001
4.995636430758983e-002	-5.874229e-001	-8.280285e-001	2.406055e-001
5.000000000000000e-002	-6.018040e-001	-8.359016e-001	2.340976e-001
5.100000000000000e-002	-3.224370e-001	-5.579258e-001	2.354888e-001
5.106981710785627e-002	-2.922191e-001	-5.112638e-001	2.190447e-001
5.120945132356881e-002	-2.317833e-001	-3.770593e-001	1.452760e-001
5.148871975499391e-002	-1.109118e-001	-5.702048e-002	-5.389128e-002
5.200000000000000e-002	1.103780e-001	5.111875e-001	-4.008095e-001
5.205585368628501e-002	9.697557e-002	4.959496e-001	-3.989741e-001
5.216756105885505e-002	7.017072e-002	4.605004e-001	-3.903297e-001
5.283780529427528e-002	-9.065840e-002	2.153473e-001	-3.060057e-001
5.300000000000000e-002	-1.295780e-001	1.631061e-001	-2.926841e-001
5.308936589805603e-002	-1.066372e-001	1.837896e-001	-2.904268e-001
5.326809769416809e-002	-6.075545e-002	2.202980e-001	-2.810534e-001
5.362556128639221e-002	3.100796e-002	2.887261e-001	-2.577181e-001
5.400000000000000e-002	1.271290e-001	3.644602e-001	-2.373312e-001
5.407149271844482e-002	1.225006e-001	3.551246e-001	-2.326240e-001
5.421447815533447e-002	1.132439e-001	3.248814e-001	-2.116375e-001
5.450044902911377e-002	9.473043e-002	2.501667e-001	-1.554362e-001
5.500000000000000e-002	6.239000e-002	1.254654e-001	-6.307536e-002
5.505719417475586e-002	6.132590e-002	1.224613e-001	-6.113541e-002
5.517158252426758e-002	5.919771e-002	1.112374e-001	-5.203964e-002
5.540035922329101e-002	5.494132e-002	7.870011e-002	-2.375880e-002
5.585791262133789e-002	4.642854e-002	1.162510e-002	3.480344e-002
5.599999999999999e-002	4.378500e-002	-2.394795e-003	4.617979e-002
5.609151067960937e-002	9.182692e-002	4.696310e-002	4.486382e-002
5.627453203882812e-002	1.879108e-001	1.484612e-001	3.944954e-002
5.664057475726562e-002	3.800784e-001	3.540080e-001	2.607040e-002
5.700000000000000e-002	5.687720e-001	5.534968e-001	1.527521e-002
5.707320854368750e-002	5.299373e-001	5.088579e-001	2.107944e-002
5.721962563106250e-002	4.522681e-001	4.054763e-001	4.679174e-002
5.751245980581250e-002	2.969295e-001	1.818343e-001	1.150952e-001
5.800000000000000e-002	3.830600e-002	-1.825499e-001	2.208559e-001
5.805856683495000e-002	6.887379e-002	-1.545258e-001	2.233996e-001
5.817570050485000e-002	1.300094e-001	-1.052621e-001	2.352715e-001
5.887850252425000e-002	4.968228e-001	1.507196e-001	3.461033e-001
5.900000000000000e-002	5.602360e-001	2.024106e-001	3.578254e-001
5.909370693592000e-002	4.925951e-001	1.374953e-001	3.550998e-001
5.928112080776000e-002	3.573135e-001	1.332012e-002	3.439933e-001
5.965594855144000e-002	8.675004e-002	-2.300005e-001	3.167506e-001
6.000000000000000e-002	-1.615980e-001	-4.581152e-001	2.965172e-001
6.007496554873600e-002	-1.632573e-001	-4.576043e-001	2.943470e-001
6.022489664620800e-002	-1.665759e-001	-4.513731e-001	2.847972e-001
6.052475884115200e-002	-1.732130e-001	-4.328432e-001	2.596302e-001
6.100000000000000e-002	-1.837320e-001	-4.067003e-001	2.229683e-001
6.105997243898880e-002	-1.726303e-001	-3.868610e-001	2.142307e-001
6.117991731696640e-002	-1.504270e-001	-3.240723e-001	1.736453e-001
6.141980707292160e-002	-1.060203e-001	-1.576730e-001	5.165274e-002
6.189958658483200e-002	-1.720683e-002	1.792281e-001	-1.964349e-001
6.200000000000000e-002	1.381000e-003	2.282708e-001	-2.268898e-001
6.209595590238208e-002	2.628779e-002	2.319364e-001	-2.056486e-001
6.228786770714624e-002	7.610139e-002	1.960601e-001	-1.199587e-001
6.267169131667456e-002	1.757286e-001	8.704189e-002	8.868667e-002
6.300000000000000e-002	2.609460e-001	3.014994e-002	2.307961e-001
6.307676472190567e-002	2.532794e-001	3.671561e-002	2.165638e-001
6.323029416571700e-002	2.379463e-001	8.358201e-002	1.543643e-001
6.353735305333966e-002	2.072800e-001	2.155414e-001	-8.261407e-003
6.400000000000000e-002	1.610750e-001	3.918659e-001	-2.307909e-001
6.406141177752453e-002	1.688224e-001	3.902061e-001	-2.213837e-001
6.418423533257359e-002	1.843172e-001	3.622207e-001	-1.779035e-001
6.442988244267171e-002	2.153068e-001	2.648976e-001	-4.959081e-002
6.492117666286797e-002	2.772861e-001	6.839234e-002	2.088937e-001
6.500000000000000e-002	2.872300e-001	5.489397e-002	2.323360e-001
6.509825884403925e-002	2.343093e-001	2.912797e-002	2.051813e-001
6.529477653211775e-002	1.284678e-001	3.169011e-002	9.677768e-002
6.568781190827475e-002	-8.321518e-002	8.202927e-002	-1.652444e-001
6.600000000000000e-002	-2.513550e-001	7.687023e-002	-3.282252e-001
6.607860707523140e-002	-1.605740e-001	1.519213e-001	-3.124953e-001
6.623582122569420e-002	2.098786e-002	2.652292e-001	-2.442414e-001
6.655024952661980e-002	3.841117e-001	4.512890e-001	-6.717729e-002
6.699999999999999e-002	9.035150e-001	7.434954e-001	1.600196e-001
6.718865698055535e-002	8.308366e-001	6.719280e-001	1.589086e-001
6.799999999999999e-002	5.182740e-001	3.675970e-001	1.506770e-001
6.809999999999999e-002	3.888675e-001	2.325674e-001	1.563001e-001
6.830000000000000e-002	1.300545e-001	-4.851325e-002	1.785678e-001
6.870000000000000e-002	-3.875715e-001	-6.196716e-001	2.321000e-001
6.899999999999999e-002	-7.757910e-001	-1.038931e+000	2.631398e-001
6.907999999999999e-002	-7.587327e-001	-9.981294e-001	2.393968e-001
6.923999999999998e-002	-7.246161e-001	-8.615526e-001	1.369365e-001
6.955999999999998e-002	-6.563827e-001	-5.290412e-001	-1.273415e-001
6.999999999999999e-002	-5.625620e-001	-1.122698e-001	-4.502922e-001
7.006399999999999e-002	-5.873584e-001	-1.558925e-001	-4.314658e-001
7.019199999999999e-002	-6.369510e-001	-2.917212e-001	-3.452298e-001
7.044800000000000e-002	-7.361364e-001	-6.367172e-001	-9.941923e-002
7.096000000000000e-002	-9.345073e-001	-1.321778e+000	3.872705e-001
