time	V(file1)	V(file1)-V(file2)	V(file2)
0.000000000000000e+000	4.129710e-001	0.000000e+000	4.129710e-001
1.000000000000000e-003	1.741432e+000	1.328461e+000	4.129710e-001
2.000000000000000e-003	7.692700e-002	-1.664505e+000	1.741432e+000
3.000000000000000e-003	1.644860e-001	8.755901e-002	7.692700e-002
4.000000000000000e-003	2.042010e-001	3.971499e-002	1.644860e-001
5.000000000000000e-003	-3.034920e-001	-5.076930e-001	2.042010e-001
6.000000000000000e-003	1.147780e-001	4.182700e-001	-3.034920e-001
6.999999999999999e-003	-4.290920e-001	-5.438700e-001	1.147780e-001
8.000000000000000e-003	4.838100e-002	4.774730e-001	-4.290920e-001
8.999999999999999e-003	-3.830300e-001	-4.314110e-001	4.838100e-002
1.000000000000000e-002	-7.233500e-001	-3.403200e-001	-3.830300e-001
1.100000000000000e-002	-2.437530e-001	4.795970e-001	-7.233500e-001
1.200000000000000e-002	1.117985e+000	1.361738e+000	-2.437530e-001
1.237500000000000e-002	9.990091e-001	7.321104e-001	2.668988e-001
1.300000000000000e-002	8.007160e-001	-3.172690e-001	1.117985e+000
1.400000000000000e-002	1.006890e-001	-7.000270e-001	8.007160e-001
1.500000000000000e-002	-4.377320e-001	-5.384210e-001	1.006890e-001
1.600000000000000e-002	-8.693310e-001	-4.315990e-001	-4.377320e-001
1.700000000000000e-002	-2.457200e-001	6.236110e-001	-8.693310e-001
1.800000000000000e-002	-5.590100e-002	1.898190e-001	-2.457200e-001
1.900000000000000e-002	-2.599980e-001	-2.040970e-001	-5.590100e-002
2.000000000000000e-002	2.898490e-001	5.498470e-001	-2.599980e-001
2.100000000000000e-002	7.311610e-001	4.413120e-001	2.898490e-001
2.200000000000000e-002	2.797310e-001	-4.514300e-001	7.311610e-001
2.300000000000000e-002	4.402490e-001	1.605180e-001	2.797310e-001
2.400000000000000e-002	1.850970e-001	-2.551520e-001	4.402490e-001
2.500000000000000e-002	-7.553060e-001	-9.404030e-001	1.850970e-001
2.542500000000001e-002	-3.782685e-001	-1.636942e-001	-2.145743e-001
2.600000000000000e-002	1.318410e-001	8.871470e-001	-7.553060e-001
2.700000000000000e-002	1.815960e-001	4.975499e-002	1.318410e-001
2.800000000000000e-002	-8.410970e-001	-1.022693e+000	1.815960e-001
2.900000000000000e-002	3.442200e-002	8.755190e-001	-8.410970e-001
3.000000000000000e-002	4.613230e-001	4.269010e-001	3.442200e-002
3.100000000000000e-002	-1.095381e+000	-1.556704e+000	4.613230e-001
3.200000000000000e-002	-1.216640e-001	9.737170e-001	-1.095381e+000
3.300000000000000e-002	2.829100e-002	1.499550e-001	-1.216640e-001
3.400000000000000e-002	3.545130e-001	3.262220e-001	2.829100e-002
3.500000000000000e-002	9.523010e-001	5.977880e-001	3.545130e-001
3.600000000000000e-002	4.642000e-002	-9.058810e-001	9.523010e-001
3.700000000000000e-002	-2.148900e-002	-6.790900e-002	4.642000e-002
3.800000000000000e-002	2.541300e-002	4.690200e-002	-2.148900e-002
3.847500000000001e-002	2.463920e-001	2.456026e-001	7.894500e-004
3.900000000000000e-002	4.906320e-001	4.652190e-001	2.541300e-002
4.000000000000000e-002	-1.181472e+000	-1.672104e+000	4.906320e-001
4.100000000000000e-002	-3.922170e-001	7.892549e-001	-1.181472e+000
4.200000000000000e-002	5.703740e-001	9.625910e-001	-3.922170e-001
4.300000000000000e-002	2.148010e-001	-3.555730e-001	5.703740e-001
4.400000000000000e-002	2.579840e-001	4.318301e-002	2.148010e-001
4.500000000000000e-002	4.525940e-001	1.946100e-001	2.579840e-001
4.600000000000000e-002	-3.924100e-002	-4.918350e-001	4.525940e-001
4.700000000000000e-002	-1.102792e+000	-1.063551e+000	-3.924100e-002
4.800000000000000e-002	1.039369e+000	2.142161e+000	-1.102792e+000
4.900000000000000e-002	-2.722320e-001	-1.311601e+000	1.039369e+000
5.000000000000000e-002	-6.018040e-001	-3.295720e-001	-2.722320e-001
5.100000000000000e-002	-3.224370e-001	2.793670e-001	-6.018040e-001
5.152500000000001e-002	-9.520912e-002	3.599272e-001	-4.551363e-001
5.200000000000000e-002	1.103780e-001	4.328150e-001	-3.224370e-001
5.300000000000000e-002	-1.295780e-001	-2.399560e-001	1.103780e-001
5.400000000000000e-002	1.271290e-001	2.567070e-001	-1.295780e-001
5.500000000000000e-002	6.239000e-002	-6.473900e-002	1.271290e-001
5.599999999999999e-002	4.378500e-002	-1.860500e-002	6.239000e-002
5.700000000000000e-002	5.687720e-001	5.249870e-001	4.378500e-002
5.800000000000000e-002	3.830600e-002	-5.304660e-001	5.687720e-001
5.900000000000000e-002	5.602360e-001	5.219300e-001	3.830600e-002
6.000000000000000e-002	-1.615980e-001	-7.218340e-001	5.602360e-001
6.100000000000000e-002	-1.837320e-001	-2.213401e-002	-1.615980e-001
6.200000000000000e-002	1.381000e-003	1.851130e-001	-1.837320e-001
6.300000000000000e-002	2.609460e-001	2.595650e-001	1.381000e-003
6.400000000000000e-002	1.610750e-001	-9.987101e-002	2.609460e-001
6.457499999999995e-002	2.336141e-001	3.009395e-002	2.035202e-001
6.500000000000000e-002	2.872300e-001	1.261550e-001	1.610750e-001
6.600000000000000e-002	-2.513550e-001	-5.385850e-001	2.872300e-001
6.699999999999999e-002	9.035150e-001	1.154870e+000	-2.513550e-001
6.799999999999999e-002	5.182740e-001	-3.852410e-001	9.035150e-001
6.899999999999999e-002	-7.757910e-001	-1.294065e+000	5.182740e-001
6.999999999999999e-002	-5.625620e-001	2.132290e-001	-7.757910e-001
7.099999999999999e-002	-9.500050e-001	-3.874430e-001	-5.625620e-001
7.200000000000000e-002	-2.160050e-001	7.340000e-001	-9.500050e-001
7.300000000000000e-002	-5.710890e-001	-3.550840e-001	-2.160050e-001
7.400000000000000e-002	-2.758210e-001	2.952680e-001	-5.710890e-001
7.500000000000000e-002	9.369150e-001	1.212736e+000	-2.758210e-001
7.600000000000000e-002	2.490830e-001	-6.878320e-001	9.369150e-001
7.700000000000000e-002	4.173690e-001	1.682860e-001	2.490830e-001
7.762499999999994e-002	-8.249350e-002	-4.367553e-001	3.542618e-001
7.800000000000000e-002	-3.824110e-001	-7.997800e-001	4.173690e-001
7.900000000000000e-002	4.285980e-001	8.110090e-001	-3.824110e-001
8.000000000000000e-002	5.806020e-001	1.520040e-001	4.285980e-001
8.100000000000000e-002	-3.373640e-001	-9.179660e-001	5.806020e-001
8.199999999999999e-002	-2.231670e-001	1.141970e-001	-3.373640e-001
8.299999999999999e-002	-2.360790e-001	-1.291201e-002	-2.231670e-001
8.399999999999999e-002	4.410490e-001	6.771280e-001	-2.360790e-001
8.499999999999999e-002	-4.305650e-001	-8.716140e-001	4.410490e-001
8.599999999999999e-002	9.022400e-002	5.207890e-001	-4.305650e-001
8.699999999999999e-002	-1.220790e-001	-2.123030e-001	9.022400e-002
8.800000000000000e-002	1.004081e+000	1.126160e+000	-1.220790e-001
8.900000000000000e-002	9.642100e-002	-9.076600e-001	1.004081e+000
9.000000000000000e-002	3.033340e-001	2.069130e-001	9.642100e-002
9.067499999999994e-002	-3.478129e-001	-5.839001e-001	2.360873e-001
9.100000000000000e-002	-6.613280e-001	-9.646620e-001	3.033340e-001
9.200000000000000e-002	5.403850e-001	1.201713e+000	-6.613280e-001
9.300000000000000e-002	-3.922610e-001	-9.326460e-001	5.403850e-001
9.400000000000000e-002	7.090200e-002	4.631630e-001	-3.922610e-001
9.500000000000000e-002	-7.249470e-001	-7.958490e-001	7.090200e-002
9.600000000000000e-002	-1.961080e-001	5.288390e-001	-7.249470e-001
9.699999999999999e-002	-4.650880e-001	-2.689800e-001	-1.961080e-001
9.799999999999999e-002	-4.957870e-001	-3.069898e-002	-4.650880e-001
9.899999999999999e-002	-1.204400e-001	3.753470e-001	-4.957870e-001
9.999999999999999e-002	2.081500e-002	1.412550e-001	-1.204400e-001
1.010000000000000e-001	7.606260e-001	7.398110e-001	2.081500e-002
1.020000000000000e-001	-6.542860e-001	-1.414912e+000	7.606260e-001
1.030000000000000e-001	-8.798130e-001	-2.255270e-001	-6.542860e-001
1.037249999999999e-001	-6.559127e-001	1.618804e-001	-8.177931e-001
1.040000000000000e-001	-5.709850e-001	3.088280e-001	-8.798130e-001
1.050000000000000e-001	-3.764890e-001	1.944960e-001	-5.709850e-001
1.060000000000000e-001	1.500200e-002	3.914910e-001	-3.764890e-001
1.070000000000000e-001	-2.446260e-001	-2.596280e-001	1.500200e-002
1.080000000000000e-001	1.672888e+000	1.917514e+000	-2.446260e-001
1.090000000000000e-001	-3.364600e-002	-1.706534e+000	1.672888e+000
1.100000000000000e-001	2.137020e-001	2.473480e-001	-3.364600e-002
1.110000000000000e-001	-2.868870e-001	-5.005890e-001	2.137020e-001
1.120000000000000e-001	2.287030e-001	5.155900e-001	-2.868870e-001
1.130000000000000e-001	-9.200200e-002	-3.207050e-001	2.287030e-001
1.140000000000000e-001	-8.997930e-001	-8.077910e-001	-9.200200e-002
1.150000000000000e-001	-3.280550e-001	5.717380e-001	-8.997930e-001
1.160000000000000e-001	1.112618e+000	1.440673e+000	-3.280550e-001
1.167749999999999e-001	3.732099e-001	-4.152567e-001	7.884666e-001
1.170000000000000e-001	1.585430e-001	-9.540750e-001	1.112618e+000
1.180000000000000e-001	6.203080e-001	4.617650e-001	1.585430e-001
1.190000000000000e-001	2.945630e-001	-3.257450e-001	6.203080e-001
1.200000000000000e-001	-6.837800e-001	-9.783430e-001	2.945630e-001
1.210000000000000e-001	5.726870e-001	1.256467e+000	-6.837800e-001
1.220000000000000e-001	3.569910e-001	-2.156960e-001	5.726870e-001
1.230000000000000e-001	-7.096270e-001	-1.066618e+000	3.569910e-001
1.240000000000000e-001	-4.422100e-001	2.674170e-001	-7.096270e-001
1.250000000000000e-001	-3.280040e-001	1.142060e-001	-4.422100e-001
1.260000000000000e-001	-5.947260e-001	-2.667220e-001	-3.280040e-001
1.270000000000000e-001	3.170000e-003	5.978960e-001	-5.947260e-001
1.280000000000000e-001	4.938650e-001	4.906950e-001	3.170000e-003
1.290000000000000e-001	3.607700e-001	-1.330950e-001	4.938650e-001
1.298249999999999e-001	-7.485530e-001	-1.132615e+000	3.840616e-001
1.300000000000000e-001	-9.838640e-001	-1.344634e+000	3.607700e-001
1.310000000000000e-001	-2.403600e-001	7.435040e-001	-9.838640e-001
1.320000000000000e-001	-9.442470e-001	-7.038870e-001	-2.403600e-001
1.330000000000000e-001	9.213440e-001	1.865591e+000	-9.442470e-001
1.340000000000000e-001	-2.587440e-001	-1.180088e+000	9.213440e-001
1.350000000000000e-001	2.732520e-001	5.319960e-001	-2.587440e-001
1.360000000000000e-001	1.466080e-001	-1.266440e-001	2.732520e-001
1.370000000000000e-001	4.950860e-001	3.484780e-001	1.466080e-001
1.380000000000000e-001	3.611900e-001	-1.338960e-001	4.950860e-001
1.390000000000000e-001	-4.894030e-001	-8.505930e-001	3.611900e-001
1.400000000000000e-001	-3.453400e-002	4.548690e-001	-4.894030e-001
1.410000000000000e-001	8.212900e-002	1.166630e-001	-3.453400e-002
1.420000000000000e-001	-9.052850e-001	-9.874140e-001	8.212900e-002
1.428749999999999e-001	5.656854e-001	1.347544e+000	-7.818583e-001
1.430000000000000e-001	7.758240e-001	1.681109e+000	-9.052850e-001
1.440000000000000e-001	-3.476810e-001	-1.123505e+000	7.758240e-001
1.450000000000000e-001	3.438230e-001	6.915040e-001	-3.476810e-001
1.460000000000000e-001	4.875280e-001	1.437050e-001	3.438230e-001
1.470000000000000e-001	6.610400e-002	-4.214240e-001	4.875280e-001
1.480000000000000e-001	1.209860e-001	5.488200e-002	6.610400e-002
1.490000000000000e-001	7.116340e-001	5.906480e-001	1.209860e-001
1.500000000000000e-001	6.308540e-001	-8.077997e-002	7.116340e-001
1.510000000000000e-001	-4.309600e-001	-1.061814e+000	6.308540e-001
1.520000000000000e-001	-4.735400e-001	-4.258001e-002	-4.309600e-001
1.530000000000000e-001	1.310840e+000	1.784380e+000	-4.735400e-001
1.540000000000000e-001	-3.095890e-001	-1.620429e+000	1.310840e+000
1.550000000000000e-001	-5.322770e-001	-2.226880e-001	-3.095890e-001
1.559249999999999e-001	-2.652415e-001	2.503339e-001	-5.155754e-001
1.560000000000000e-001	-2.435900e-001	2.886870e-001	-5.322770e-001
1.570050000000000e-001	-5.625476e-002	1.864038e-001	-2.426585e-001
1.580000000000000e-001	1.503550e-001	2.076480e-001	-5.729300e-002
1.590000000000000e-001	-2.044260e-001	-3.547810e-001	1.503550e-001
1.600000000000000e-001	5.686400e-002	2.612900e-001	-2.044260e-001
1.610000000000000e-001	-4.730000e-002	-1.041640e-001	5.686400e-002
1.620000000000000e-001	3.914750e-001	4.387750e-001	-4.730000e-002
1.630000000000000e-001	9.499630e-001	5.584880e-001	3.914750e-001
1.640000000000000e-001	-5.043830e-001	-1.454346e+000	9.499630e-001
1.650000000000000e-001	4.255300e-002	5.469360e-001	-5.043830e-001
1.660000000000000e-001	4.017660e-001	3.592130e-001	4.255300e-002
1.670000000000000e-001	1.991250e-001	-2.026410e-001	4.017660e-001
1.680000000000000e-001	2.050620e-001	5.936995e-003	1.991250e-001
1.689749999999999e-001	4.220122e-001	2.170986e-001	2.049136e-001
1.690000000000000e-001	4.275750e-001	2.225130e-001	2.050620e-001
1.700000000000000e-001	2.323460e-001	-1.952290e-001	4.275750e-001
1.710000000000000e-001	-5.181330e-001	-7.504790e-001	2.323460e-001
1.720000000000000e-001	-7.387860e-001	-2.206530e-001	-5.181330e-001
1.730000000000000e-001	-1.128870e-001	6.258990e-001	-7.387860e-001
1.740000000000000e-001	7.652460e-001	8.781330e-001	-1.128870e-001
1.750000000000000e-001	-2.351830e-001	-1.000429e+000	7.652460e-001
1.760000000000000e-001	2.493200e-002	2.601150e-001	-2.351830e-001
1.770000000000000e-001	-2.515950e-001	-2.765270e-001	2.493200e-002
1.780000000000000e-001	-7.318120e-001	-4.802170e-001	-2.515950e-001
1.790000000000000e-001	5.720980e-001	1.303910e+000	-7.318120e-001
1.800000000000000e-001	3.989330e-001	-1.731650e-001	5.720980e-001
1.810000000000000e-001	-4.719300e-002	-4.461260e-001	3.989330e-001
1.820000000000000e-001	-2.884520e-001	-2.412590e-001	-4.719300e-002
1.830000000000000e-001	4.973120e-001	7.857640e-001	-2.884520e-001
1.840000000000000e-001	-6.760140e-001	-1.173326e+000	4.973120e-001
1.850000000000000e-001	-1.628060e-001	5.132080e-001	-6.760140e-001
1.860000000000000e-001	2.838730e-001	4.466790e-001	-1.628060e-001
1.870000000000000e-001	-3.799370e-001	-6.638100e-001	2.838730e-001
1.880000000000000e-001	-5.697300e-002	3.229640e-001	-3.799370e-001
1.890000000000000e-001	4.955320e-001	5.525050e-001	-5.697300e-002
1.900000000000000e-001	5.631090e-001	6.757697e-002	4.955320e-001
1.910000000000000e-001	2.497160e-001	-3.133930e-001	5.631090e-001
1.920000000000000e-001	-1.161950e-001	-3.659110e-001	2.497160e-001
1.930000000000000e-001	8.213300e-002	1.983280e-001	-1.161950e-001
1.940000000000000e-001	-4.426610e-001	-5.247940e-001	8.213300e-002
1.950000000000000e-001	9.807800e-001	1.423441e+000	-4.426610e-001
1.950050000000000e-001	9.753536e-001	1.410897e+000	-4.355438e-001
1.960000000000000e-001	-1.045060e-001	-1.085286e+000	9.807800e-001
1.970000000000000e-001	-2.237960e-001	-1.192900e-001	-1.045060e-001
1.980000000000000e-001	3.493860e-001	5.731820e-001	-2.237960e-001
1.990000000000000e-001	-7.446100e-002	-4.238470e-001	3.493860e-001
2.000000000000000e-001	3.651630e-001	4.396240e-001	-7.446100e-002
2.010000000000000e-001	-2.701810e-001	-6.353440e-001	3.651630e-001
2.020000000000000e-001	6.419970e-001	9.121780e-001	-2.701810e-001
2.030000000000000e-001	3.039990e-001	-3.379980e-001	6.419970e-001
2.040000000000000e-001	9.213000e-002	-2.118690e-001	3.039990e-001
2.050000000000000e-001	-1.830140e-001	-2.751440e-001	9.213000e-002
2.060000000000000e-001	-1.051778e+000	-8.687640e-001	-1.830140e-001
2.070000000000000e-001	-6.574610e-001	3.943170e-001	-1.051778e+000
2.080000000000000e-001	2.486110e-001	9.060720e-001	-6.574610e-001
2.080150000000000e-001	2.385605e-001	8.824304e-001	-6.438699e-001
2.090000000000000e-001	-4.214240e-001	-6.700350e-001	2.486110e-001
2.100000000000000e-001	-1.109352e+000	-6.879280e-001	-4.214240e-001
2.110000000000000e-001	3.110740e-001	1.420426e+000	-1.109352e+000
2.120000000000000e-001	-2.460610e-001	-5.571350e-001	3.110740e-001
2.130000000000000e-001	5.392990e-001	7.853600e-001	-2.460610e-001
2.140000000000000e-001	4.230900e-001	-1.162090e-001	5.392990e-001
2.150000000000000e-001	-9.517000e-002	-5.182600e-001	4.230900e-001
2.160000000000000e-001	-3.018900e-001	-2.067200e-001	-9.517000e-002
2.170000000000000e-001	-4.267030e-001	-1.248130e-001	-3.018900e-001
2.180000000000000e-001	5.027100e-001	9.294130e-001	-4.267030e-001
2.190000000000000e-001	6.429700e-002	-4.384130e-001	5.027100e-001
2.200000000000000e-001	6.183160e-001	5.540190e-001	6.429700e-002
2.210000000000000e-001	2.499240e-001	-3.683920e-001	6.183160e-001
2.210350000000000e-001	2.639017e-001	-3.415205e-001	6.054223e-001
2.220000000000000e-001	6.492870e-001	3.993630e-001	2.499240e-001
2.230000000000000e-001	2.745250e-001	-3.747620e-001	6.492870e-001
2.240000000000000e-001	3.515560e-001	7.703102e-002	2.745250e-001
2.250000000000000e-001	4.962510e-001	1.446950e-001	3.515560e-001
2.260000000000000e-001	-1.424513e+000	-1.920764e+000	4.962510e-001
2.270000000000000e-001	-2.193720e-001	1.205141e+000	-1.424513e+000
2.280000000000000e-001	-1.827240e-001	3.664801e-002	-2.193720e-001
2.290000000000000e-001	-5.977310e-001	-4.150070e-001	-1.827240e-001
2.300000000000000e-001	-4.508800e-002	5.526430e-001	-5.977310e-001
2.310000000000000e-001	-3.187300e-001	-2.736420e-001	-4.508800e-002
2.320000000000000e-001	6.321160e-001	9.508460e-001	-3.187300e-001
2.330000000000000e-001	-2.456900e-001	-8.778060e-001	6.321160e-001
2.340000000000000e-001	-8.589230e-001	-6.132330e-001	-2.456900e-001
2.340750000000000e-001	-7.316786e-001	-4.399961e-001	-2.916825e-001
2.350000000000000e-001	8.376690e-001	1.696592e+000	-8.589230e-001
2.360000000000000e-001	-1.601520e-001	-9.978210e-001	8.376690e-001
2.370000000000000e-001	-6.740950e-001	-5.139430e-001	-1.601520e-001
2.380000000000000e-001	-7.410260e-001	-6.693101e-002	-6.740950e-001
2.390000000000000e-001	-7.559500e-002	6.654310e-001	-7.410260e-001
2.400000000000000e-001	2.556190e-001	3.312140e-001	-7.559500e-002
2.410000000000000e-001	-6.743700e-001	-9.299890e-001	2.556190e-001
2.420000000000000e-001	-5.814200e-002	6.162280e-001	-6.743700e-001
2.430000000000000e-001	1.636390e-001	2.217810e-001	-5.814200e-002
2.440000000000000e-001	9.553800e-001	7.917410e-001	1.636390e-001
2.450000000000000e-001	-2.642900e-001	-1.219670e+000	9.553800e-001
2.460000000000000e-001	-2.885360e-001	-2.424601e-002	-2.642900e-001
2.470000000000000e-001	-4.824000e-002	2.402960e-001	-2.885360e-001
2.471250000000000e-001	9.360475e-002	3.521037e-001	-2.584990e-001
2.480000000000000e-001	1.086518e+000	1.134758e+000	-4.824000e-002
2.490000000000000e-001	-2.528820e-001	-1.339400e+000	1.086518e+000
2.500000000000000e-001	-3.452920e-001	-9.241000e-002	-2.528820e-001
2.510000000000000e-001	7.296900e-002	4.182610e-001	-3.452920e-001
2.520000000000000e-001	1.320800e-001	5.911101e-002	7.296900e-002
2.530000000000000e-001	4.857980e-001	3.537180e-001	1.320800e-001
2.540000000000000e-001	6.852800e-002	-4.172700e-001	4.857980e-001
2.550000000000000e-001	5.598080e-001	4.912800e-001	6.852800e-002
2.560000000000000e-001	-2.304700e-002	-5.828550e-001	5.598080e-001
2.570000000000000e-001	3.256650e-001	3.487120e-001	-2.304700e-002
2.580000000000000e-001	3.400110e-001	1.434600e-002	3.256650e-001
2.590000000000000e-001	-4.371200e-002	-3.837230e-001	3.400110e-001
2.600000000000000e-001	7.787780e-001	8.224900e-001	-4.371200e-002
2.601750000000000e-001	7.335293e-001	6.333056e-001	1.002237e-001
2.610000000000000e-001	5.202140e-001	-2.585640e-001	7.787780e-001
2.620000000000000e-001	-2.980630e-001	-8.182770e-001	5.202140e-001
2.630000000000000e-001	5.287000e-001	8.267630e-001	-2.980630e-001
2.640000000000000e-001	4.174870e-001	-1.112130e-001	5.287000e-001
2.650000000000000e-001	-5.209430e-001	-9.384300e-001	4.174870e-001
2.660000000000000e-001	5.983910e-001	1.119334e+000	-5.209430e-001
2.670000000000000e-001	-7.172300e-001	-1.315621e+000	5.983910e-001
2.680000000000000e-001	-5.288600e-002	6.643440e-001	-7.172300e-001
2.690000000000000e-001	-2.683410e-001	-2.154550e-001	-5.288600e-002
2.700000000000000e-001	-2.741800e-002	2.409230e-001	-2.683410e-001
2.710000000000000e-001	-2.618290e-001	-2.344110e-001	-2.741800e-002
2.720000000000000e-001	-2.899710e-001	-2.814201e-002	-2.618290e-001
2.730000000000000e-001	4.505990e-001	7.405700e-001	-2.899710e-001
2.732249999999999e-001	3.591397e-001	4.824824e-001	-1.233428e-001
2.740000000000000e-001	4.411300e-002	-4.064860e-001	4.505990e-001
